ESP-ROM:esp32s3-20210327
Build:Mar 27 2021
rst:0x1 (POWERON),boot:0x18 (SPI_FAST_FLASH_BOOT)
SPIWP:0xee
Octal Flash Mode Enabled
For OPI Flash, Use Default Flash Boot Mode
mode:SLOW_RD, clock div:1
load:0x3fce2810,len:0x15a0
load:0x403c8700,len:0x4
load:0x403c8704,len:0xd20
load:0x403cb700,len:0x2ee4
entry 0x403c8928
[0;32mI (33) boot: ESP-IDF HEAD-HASH-NOTFOUND 2nd stage bootloader[0m
[0;32mI (33) boot: compile time Apr 21 2025 15:45:26[0m
[0;32mI (33) boot: Multicore bootloader[0m
[0;32mI (35) boot: chip revision: v0.1[0m
[0;32mI (37) boot: efuse block revision: v1.2[0m
[0;32mI (41) boot.esp32s3: Boot SPI Speed : 80MHz[0m
[0;32mI (45) boot.esp32s3: SPI Mode       : SLOW READ[0m
[0;32mI (49) boot.esp32s3: SPI Flash Size : 2MB[0m
[0;32mI (53) boot: Enabling RNG early entropy source...[0m
[0;32mI (57) boot: Partition Table:[0m
[0;32mI (60) boot: ## Label            Usage          Type ST Offset   Length[0m
[0;32mI (66) boot:  0 nvs              WiFi data        01 02 00009000 00006000[0m
[0;32mI (73) boot:  1 phy_init         RF data          01 01 0000f000 00001000[0m
[0;32mI (79) boot:  2 factory          factory app      00 00 00010000 00100000[0m
[0;32mI (86) boot: End of partition table[0m
[0;32mI (89) esp_image: segment 0: paddr=00010020 vaddr=3c090020 size=1b594h (112020) map[0m
[0;32mI (123) esp_image: segment 1: paddr=0002b5bc vaddr=3fc9a800 size=04988h ( 18824) load[0m
[0;32mI (128) esp_image: segment 2: paddr=0002ff4c vaddr=40374000 size=000cch (   204) load[0m
[0;32mI (128) esp_image: segment 3: paddr=00030020 vaddr=42000020 size=8f164h (586084) map[0m
[0;32mI (272) esp_image: segment 4: paddr=000bf18c vaddr=403740cc size=16700h ( 91904) load[0m
[0;32mI (297) esp_image: segment 5: paddr=000d5894 vaddr=600fe100 size=0001ch (    28) load[0m
[0;32mI (306) boot: Loaded app from partition at offset 0x10000[0m
[0;32mI (306) boot: Disabling RNG early entropy source...[0m
[0;32mI (317) cpu_start: Multicore app[0m
[0;32mI (325) cpu_start: Pro cpu start user code[0m
[0;32mI (325) cpu_start: cpu freq: 160000000 Hz[0m
[0;32mI (325) app_init: Application information:[0m
[0;32mI (325) app_init: Project name:     app-template[0m
[0;32mI (330) app_init: App version:      6d4ace7[0m
[0;32mI (334) app_init: Compile time:     Apr 24 2025 11:59:59[0m
[0;32mI (339) app_init: ELF file SHA256:  aeba756e9...[0m
[0;32mI (343) app_init: ESP-IDF:          HEAD-HASH-NOTFOUND[0m
[0;32mI (348) efuse_init: Min chip rev:     v0.0[0m
[0;32mI (352) efuse_init: Max chip rev:     v0.99 [0m
[0;32mI (356) efuse_init: Chip rev:         v0.1[0m
[0;32mI (360) heap_init: Initializing. RAM available for dynamic allocation:[0m
[0;32mI (366) heap_init: At 3FCA3818 len 00045EF8 (279 KiB): RAM[0m
[0;32mI (371) heap_init: At 3FCE9710 len 00005724 (21 KiB): RAM[0m
[0;32mI (376) heap_init: At 3FCF0000 len 00008000 (32 KiB): DRAM[0m
[0;32mI (381) heap_init: At 600FE11C len 00001ECC (7 KiB): RTCRAM[0m
[0;33mW (387) spi_flash: Octal flash chip is using but dio mode is selected, will automatically switch to Octal mode[0m
[0;32mI (396) spi_flash: detected chip: mxic (opi)[0m
[0;32mI (400) spi_flash: flash io: opi_str[0m
[0;33mW (404) spi_flash: Detected size(32768k) larger than the size in the binary image header(2048k). Using the size in the binary image header.[0m
[0;32mI (416) sleep_gpio: Configure to isolate all GPIO pins in sleep state[0m
[0;32mI (422) sleep_gpio: Enable automatic switching of GPIO sleep configuration[0m
[0;32mI (429) main_task: Started on CPU0[0m
[0;32mI (439) main_task: Calling app_main()[0m
[0;32mI (459) pp: pp rom version: e7ae62f[0m
[0;32mI (459) net80211: net80211 rom version: e7ae62f[0m
[0;32mI (469) wifi:wifi driver task: 3fcad890, prio:23, stack:6656, core=0[0m
[0;32mI (469) wifi:wifi firmware version: 48ea317a7[0m
[0;32mI (469) wifi:wifi certification version: v7.0[0m
[0;32mI (469) wifi:config NVS flash: enabled[0m
[0;32mI (469) wifi:config nano formatting: disabled[0m
[0;32mI (479) wifi:Init data frame dynamic rx buffer num: 32[0m
[0;32mI (479) wifi:Init static rx mgmt buffer num: 5[0m
[0;32mI (489) wifi:Init management short buffer num: 32[0m
[0;32mI (489) wifi:Init dynamic tx buffer num: 32[0m
[0;32mI (499) wifi:Init static tx FG buffer num: 2[0m
[0;32mI (499) wifi:Init static rx buffer size: 1600[0m
[0;32mI (499) wifi:Init static rx buffer num: 10[0m
[0;32mI (509) wifi:Init dynamic rx buffer num: 32[0m
[0;32mI (509) wifi_init: rx ba win: 6[0m
[0;32mI (519) wifi_init: accept mbox: 6[0m
[0;32mI (519) wifi_init: tcpip mbox: 32[0m
[0;32mI (519) wifi_init: udp mbox: 6[0m
[0;32mI (519) wifi_init: tcp mbox: 6[0m
[0;32mI (529) wifi_init: tcp tx win: 5760[0m
[0;32mI (529) wifi_init: tcp rx win: 5760[0m
[0;32mI (529) wifi_init: tcp mss: 1440[0m
[0;32mI (539) wifi_init: WiFi IRAM OP enabled[0m
[0;32mI (539) wifi_init: WiFi RX IRAM OP enabled[0m
[0;33mW (539) wifi:Password length matches WPA2 standards, authmode threshold changes from OPEN to WPA2[0m
[0;32mI (549) phy_init: phy_version 680,a6008b2,Jun  4 2024,16:41:10[0m
[0;32mI (599) wifi:mode : sta (7c:df:a1:e1:13:60)[0m
[0;32mI (599) wifi:enable tsf[0m
[0;32mI (599) RS485_APP: No existing mappings[0m
Client list at boot:
[0] = 0
[1] = 0
[2] = 0
[3] = 0
[4] = 0
[5] = 0
[0;32mI (609) wifi:new:<3,0>, old:<1,0>, ap:<255,255>, sta:<3,0>, prof:1, snd_ch_cfg:0x0[0m
[0;32mI (609) wifi:state: init -> auth (0xb0)[0m
[6] = 0
[7] = 0
[8] = 0
[9] = 0
[0;32mI (619) main_task: Returned from app_main()[0m
[0;32mI (619) wifi:state: auth -> assoc (0x0)[0m
[0;32mI (639) wifi:state: assoc -> run (0x10)[0m
[0;32mI (899) wifi:<ba-add>idx:0 (ifx:0, 2a:87:ba:d1:c4:54), tid:0, ssn:2, winSize:64[0m
[0;32mI (899) wifi:connected with CONFIO_5G, aid = 5, channel 3, BW20, bssid = 2a:87:ba:d1:c4:54[0m
[0;32mI (909) wifi:security: WPA2-PSK, phy: bgn, rssi: -51[0m
[0;32mI (909) wifi:pm start, type: 1[0m

[0;32mI (909) wifi:dp: 1, bi: 102400, li: 3, scale listen interval from 307200 us to 307200 us[0m
[0;32mI (919) wifi:set rx beacon pti, rx_bcn_pti: 0, bcn_timeout: 25000, mt_pti: 0, mt_time: 10000[0m
[0;32mI (939) wifi:AP's beacon interval = 102400 us, DTIM period = 1[0m
[0;32mI (1759) wifi:<ba-add>idx:1 (ifx:0, 2a:87:ba:d1:c4:54), tid:6, ssn:0, winSize:64[0m
[0;32mI (2459) esp_netif_handlers: sta ip: 192.168.0.106, mask: 255.255.255.0, gw: 192.168.0.1[0m
[0;32mI (2459) RS485_APP: Connected! IP Address: 192.168.0.106[0m
ESP32 IP Address: 192.168.0.106
Raw Response and len 120: 00 00 00 00 00 00 00 00 00 00 00 00 00 00 00 00 00 00 00 00 00 00 00 00 00 00 00 00 00 00 00 00 00 00 00 00 00 00 00 00 00 00 00 00 00 00 00 00 00 00 00 00 00 00 00 00 00 00 00 00 00 00 00 00 00 00 00 00 00 00 00 00 00 00 00 00 00 00 00 00 00 00 00 00 00 00 00 00 00 00 00 00 00 00 00 00 00 00 00 00 00 00 00 00 00 00 00 00 00 00 00 00 00 00 00 00 00 00 00 00 
-->Received Button/Knob 0 state : 0
Decrypted Response: F7 04 FB 02 FF 07 F7 02 00 00 00 FA 03 00 00 00 00 00 00 00 00 00 00 00 00 00 00 00 00 00 00 00 00 00 00 00 00 00 00 00 00 00 00 00 00 00 00 00 00 00 00 00 00 00 00 00 00 00 00 00 00 00 00 00 00 00 00 00 00 00 00 00 00 00 00 00 00 00 00 00 00 00 00 00 00 00 00 00 00 00 00 00 00 00 00 00 00 00 00 00 00 00 00 00 00 00 00 00 00 00 00 00 00 00 00 00 00 00 00 00 
[0;32mI (3459) mdns_mem: mDNS task will be created from internal RAM[0m
mdns hostname set to: [confiors485]
TCP server listening on port 5000
Raw Response and len 120: 00 00 00 00 00 00 00 00 00 00 00 00 00 00 00 00 00 00 00 00 00 00 00 00 00 00 00 00 00 00 00 00 00 00 00 00 00 00 00 00 00 00 00 00 00 00 00 00 00 00 00 00 00 00 00 00 00 00 00 00 00 00 00 00 00 FF 8B 63 AD 4D 0E 44 76 0F 00 00 00 00 00 00 00 00 00 00 00 00 00 00 00 00 00 00 00 00 00 00 00 00 00 00 00 00 00 00 00 00 00 00 00 00 00 00 00 00 00 00 00 00 00 00 
-->Received Button/Knob 0 state : 0
Decrypted Response: F7 04 FB 02 FF 07 F7 02 00 00 00 FA 03 00 00 00 00 00 00 00 00 00 00 00 00 00 00 00 00 00 00 00 00 00 00 00 00 00 00 00 00 00 00 00 00 00 00 00 00 00 00 00 00 00 00 00 00 00 00 00 00 00 00 00 00 FF 8B 63 AD 4D 0E 44 76 0F 00 00 00 00 00 00 00 00 00 00 00 00 00 00 00 00 00 00 00 00 00 00 00 00 00 00 00 00 00 00 00 00 00 00 00 00 00 00 00 00 00 00 00 00 00 00 
Raw Response and len 120: 00 00 00 00 00 00 00 00 00 00 00 00 00 00 00 00 00 00 00 00 00 00 00 00 00 00 00 00 00 00 00 00 00 00 00 00 00 00 00 00 00 00 00 00 00 00 00 00 00 00 00 00 00 00 00 00 00 00 00 00 00 00 00 00 00 00 00 00 00 00 00 00 00 00 00 00 00 00 00 00 00 00 00 00 00 00 00 00 00 00 00 00 00 00 00 00 00 00 00 00 00 00 00 00 00 00 00 00 00 00 00 00 00 00 00 00 00 00 00 00 
-->Received Button/Knob 0 state : 0
Decrypted Response: F7 04 FB 02 FF 07 F7 02 00 00 00 FA 03 00 00 00 00 00 00 00 00 00 00 00 00 00 00 00 00 00 00 00 00 00 00 00 00 00 00 00 00 00 00 00 00 00 00 00 00 00 00 00 00 00 00 00 00 00 00 00 00 00 00 00 00 00 00 00 00 00 00 00 00 00 00 00 00 00 00 00 00 00 00 00 00 00 00 00 00 00 00 00 00 00 00 00 00 00 00 00 00 00 00 00 00 00 00 00 00 00 00 00 00 00 00 00 00 00 00 00 
Raw Response and len 120: 00 00 00 00 00 00 00 00 00 8D B6 25 FD FF 8B 63 AD FF FE 3D 00 00 00 00 00 00 00 00 00 00 00 00 00 00 00 00 00 00 00 00 00 00 00 00 00 00 00 00 00 00 00 00 00 00 00 00 00 00 00 00 00 00 00 00 00 00 00 00 00 00 00 00 00 00 00 00 00 00 00 00 00 00 00 00 00 00 00 00 00 00 00 00 00 00 00 00 FE 00 00 00 00 00 00 00 00 00 00 00 00 00 00 00 00 00 00 00 00 00 00 00 
-->Received Button/Knob 141 state : 62
Decrypted Response: F7 04 FB 02 FF 07 F7 02 00 8D 3E 1F 00 FF 8B 63 AD FF FE 3D 00 00 00 00 00 00 00 00 00 00 00 00 00 00 00 00 00 00 00 00 00 00 00 00 00 00 00 00 00 00 00 00 00 00 00 00 00 00 00 00 00 00 00 00 00 00 00 00 00 00 00 00 00 00 00 00 00 00 00 00 00 00 00 00 00 00 00 00 00 00 00 00 00 00 00 00 FE 00 00 00 00 00 00 00 00 00 00 00 00 00 00 00 00 00 00 00 00 00 00 00 
ESP-ROM:esp32s3-20210327
Build:Mar 27 2021
rst:0x1 (POWERON),boot:0x18 (SPI_FAST_FLASH_BOOT)
SPIWP:0xee
Octal Flash Mode Enabled
For OPI Flash, Use Default Flash Boot Mode
mode:SLOW_RD, clock div:1
load:0x3fce2810,len:0x15a0
load:0x403c8700,len:0x4
load:0x403c8704,len:0xd20
load:0x403cb700,len:0x2ee4
entry 0x403c8928
[0;32mI (33) boot: ESP-IDF HEAD-HASH-NOTFOUND 2nd stage bootloader[0m
[0;32mI (33) boot: compile time Apr 21 2025 15:45:26[0m
[0;32mI (33) boot: Multicore bootloader[0m
[0;32mI (35) boot: chip revision: v0.1[0m
[0;32mI (37) boot: efuse block revision: v1.2[0m
[0;32mI (41) boot.esp32s3: Boot SPI Speed : 80MHz[0m
[0;32mI (45) boot.esp32s3: SPI Mode       : SLOW READ[0m
[0;32mI (49) boot.esp32s3: SPI Flash Size : 2MB[0m
[0;32mI (53) boot: Enabling RNG early entropy source...[0m
[0;32mI (57) boot: Partition Table:[0m
[0;32mI (60) boot: ## Label            Usage          Type ST Offset   Length[0m
[0;32mI (66) boot:  0 nvs              WiFi data        01 02 00009000 00006000[0m
[0;32mI (73) boot:  1 phy_init         RF data          01 01 0000f000 00001000[0m
[0;32mI (79) boot:  2 factory          factory app      00 00 00010000 00100000[0m
[0;32mI (86) boot: End of partition table[0m
[0;32mI (89) esp_image: segment 0: paddr=00010020 vaddr=3c090020 size=1b594h (112020) map[0m
[0;32mI (123) esp_image: segment 1: paddr=0002b5bc vaddr=3fc9a800 size=04988h ( 18824) load[0m
[0;32mI (128) esp_image: segment 2: paddr=0002ff4c vaddr=40374000 size=000cch (   204) load[0m
[0;32mI (128) esp_image: segment 3: paddr=00030020 vaddr=42000020 size=8f164h (586084) map[0m
[0;32mI (272) esp_image: segment 4: paddr=000bf18c vaddr=403740cc size=16700h ( 91904) load[0m
[0;32mI (297) esp_image: segment 5: paddr=000d5894 vaddr=600fe100 size=0001ch (    28) load[0m
[0;32mI (306) boot: Loaded app from partition at offset 0x10000[0m
[0;32mI (306) boot: Disabling RNG early entropy source...[0m
[0;32mI (317) cpu_start: Multicore app[0m
[0;32mI (325) cpu_start: Pro cpu start user code[0m
[0;32mI (325) cpu_start: cpu freq: 160000000 Hz[0m
[0;32mI (325) app_init: Application information:[0m
[0;32mI (325) app_init: Project name:     app-template[0m
[0;32mI (330) app_init: App version:      6d4ace7[0m
[0;32mI (334) app_init: Compile time:     Apr 24 2025 11:59:59[0m
[0;32mI (339) app_init: ELF file SHA256:  aeba756e9...[0m
[0;32mI (343) app_init: ESP-IDF:          HEAD-HASH-NOTFOUND[0m
[0;32mI (348) efuse_init: Min chip rev:     v0.0[0m
[0;32mI (352) efuse_init: Max chip rev:     v0.99 [0m
[0;32mI (356) efuse_init: Chip rev:         v0.1[0m
[0;32mI (360) heap_init: Initializing. RAM available for dynamic allocation:[0m
[0;32mI (366) heap_init: At 3FCA3818 len 00045EF8 (279 KiB): RAM[0m
[0;32mI (371) heap_init: At 3FCE9710 len 00005724 (21 KiB): RAM[0m
[0;32mI (376) heap_init: At 3FCF0000 len 00008000 (32 KiB): DRAM[0m
[0;32mI (381) heap_init: At 600FE11C len 00001ECC (7 KiB): RTCRAM[0m
[0;33mW (387) spi_flash: Octal flash chip is using but dio mode is selected, will automatically switch to Octal mode[0m
[0;32mI (396) spi_flash: detected chip: mxic (opi)[0m
[0;32mI (400) spi_flash: flash io: opi_str[0m
[0;33mW (404) spi_flash: Detected size(32768k) larger than the size in the binary image header(2048k). Using the size in the binary image header.[0m
[0;32mI (416) sleep_gpio: Configure to isolate all GPIO pins in sleep state[0m
[0;32mI (422) sleep_gpio: Enable automatic switching of GPIO sleep configuration[0m
[0;32mI (429) main_task: Started on CPU0[0m
[0;32mI (439) main_task: Calling app_main()[0m
[0;32mI (459) pp: pp rom version: e7ae62f[0m
[0;32mI (459) net80211: net80211 rom version: e7ae62f[0m
[0;32mI (469) wifi:wifi driver task: 3fcad890, prio:23, stack:6656, core=0[0m
[0;32mI (469) wifi:wifi firmware version: 48ea317a7[0m
[0;32mI (469) wifi:wifi certification version: v7.0[0m
[0;32mI (469) wifi:config NVS flash: enabled[0m
[0;32mI (469) wifi:config nano formatting: disabled[0m
[0;32mI (479) wifi:Init data frame dynamic rx buffer num: 32[0m
[0;32mI (479) wifi:Init static rx mgmt buffer num: 5[0m
[0;32mI (489) wifi:Init management short buffer num: 32[0m
[0;32mI (489) wifi:Init dynamic tx buffer num: 32[0m
[0;32mI (499) wifi:Init static tx FG buffer num: 2[0m
[0;32mI (499) wifi:Init static rx buffer size: 1600[0m
[0;32mI (499) wifi:Init static rx buffer num: 10[0m
[0;32mI (509) wifi:Init dynamic rx buffer num: 32[0m
[0;32mI (509) wifi_init: rx ba win: 6[0m
[0;32mI (519) wifi_init: accept mbox: 6[0m
[0;32mI (519) wifi_init: tcpip mbox: 32[0m
[0;32mI (519) wifi_init: udp mbox: 6[0m
[0;32mI (519) wifi_init: tcp mbox: 6[0m
[0;32mI (529) wifi_init: tcp tx win: 5760[0m
[0;32mI (529) wifi_init: tcp rx win: 5760[0m
[0;32mI (529) wifi_init: tcp mss: 1440[0m
[0;32mI (539) wifi_init: WiFi IRAM OP enabled[0m
[0;32mI (539) wifi_init: WiFi RX IRAM OP enabled[0m
[0;33mW (539) wifi:Password length matches WPA2 standards, authmode threshold changes from OPEN to WPA2[0m
[0;32mI (549) phy_init: phy_version 680,a6008b2,Jun  4 2024,16:41:10[0m
[0;32mI (599) wifi:mode : sta (7c:df:a1:e1:13:60)[0m
[0;32mI (599) wifi:enable tsf[0m
[0;32mI (599) RS485_APP: No existing mappings[0m
Client list at boot:
[0] = 0
[1] = 0
[2] = 0
[3] = 0
[4] = 0
[5] = 0
[6] = 0
[0;32mI (599) wifi:new:<3,0>, old:<1,0>, ap:<255,255>, sta:<3,0>, prof:1, snd_ch_cfg:0x0[0m
[0;32mI (609) wifi:state: init -> auth (0xb0)[0m
[7] = 0
[8] = 0
[9] = 0
[0;32mI (619) main_task: Returned from app_main()[0m
[0;32mI (619) wifi:state: auth -> assoc (0x0)[0m
[0;32mI (629) wifi:state: assoc -> run (0x10)[0m
[0;32mI (879) wifi:<ba-add>idx:0 (ifx:0, 2a:87:ba:d1:c4:54), tid:0, ssn:2, winSize:64[0m
[0;32mI (889) wifi:connected with CONFIO_5G, aid = 5, channel 3, BW20, bssid = 2a:87:ba:d1:c4:54[0m
[0;32mI (889) wifi:security: WPA2-PSK, phy: bgn, rssi: -45[0m
[0;32mI (889) wifi:pm start, type: 1[0m

[0;32mI (899) wifi:dp: 1, bi: 102400, li: 3, scale listen interval from 307200 us to 307200 us[0m
[0;32mI (899) wifi:set rx beacon pti, rx_bcn_pti: 0, bcn_timeout: 25000, mt_pti: 0, mt_time: 10000[0m
[0;32mI (919) wifi:AP's beacon interval = 102400 us, DTIM period = 1[0m
[0;32mI (2439) esp_netif_handlers: sta ip: 192.168.0.106, mask: 255.255.255.0, gw: 192.168.0.1[0m
[0;32mI (2439) RS485_APP: Connected! IP Address: 192.168.0.106[0m
ESP32 IP Address: 192.168.0.106
Raw Response and len 120: 00 00 00 00 00 00 00 00 00 00 00 00 00 00 00 00 00 00 00 00 00 00 00 00 00 00 00 00 00 00 00 00 00 00 00 00 00 00 00 00 00 00 00 00 00 00 00 00 00 00 00 00 00 00 00 00 00 00 00 00 00 00 00 FC 00 00 00 00 00 00 00 00 00 00 00 00 00 00 00 00 00 00 00 00 00 00 00 00 00 00 00 00 00 00 00 00 00 00 00 00 00 00 00 00 00 00 00 00 00 00 00 00 00 00 00 00 00 00 00 00 
-->Received Button/Knob 0 state : 0
Decrypted Response: F7 04 FB 02 FF 07 F7 02 00 00 00 FA 03 00 00 00 00 00 00 00 00 00 00 00 00 00 00 00 00 00 00 00 00 00 00 00 00 00 00 00 00 00 00 00 00 00 00 00 00 00 00 00 00 00 00 00 00 00 00 00 00 00 00 FC 00 00 00 00 00 00 00 00 00 00 00 00 00 00 00 00 00 00 00 00 00 00 00 00 00 00 00 00 00 00 00 00 00 00 00 00 00 00 00 00 00 00 00 00 00 00 00 00 00 00 00 00 00 00 00 00 
[0;32mI (3439) mdns_mem: mDNS task will be created from internal RAM[0m
mdns hostname set to: [confiors485]
TCP server listening on port 5000
[0;32mI (3999) wifi:<ba-add>idx:1 (ifx:0, 2a:87:ba:d1:c4:54), tid:6, ssn:0, winSize:64[0m
Raw Response and len 120: 00 00 00 00 00 00 00 00 00 00 00 00 00 00 00 00 00 00 00 00 00 00 00 FE 00 00 00 00 00 00 00 00 00 00 00 00 00 00 00 00 00 00 00 00 00 00 00 00 00 00 00 00 00 00 00 00 00 00 00 00 00 00 00 00 00 00 00 00 00 00 00 00 00 00 00 00 00 00 00 00 00 00 00 00 00 00 00 00 00 00 00 00 00 00 00 00 00 00 00 00 00 00 00 00 00 00 00 00 00 00 00 00 00 00 00 00 00 00 00 00 
-->Received Button/Knob 0 state : 0
Decrypted Response: F7 04 FB 02 FF 07 F7 02 00 00 00 FA 03 00 00 00 00 00 00 00 00 00 00 FE 00 00 00 00 00 00 00 00 00 00 00 00 00 00 00 00 00 00 00 00 00 00 00 00 00 00 00 00 00 00 00 00 00 00 00 00 00 00 00 00 00 00 00 00 00 00 00 00 00 00 00 00 00 00 00 00 00 00 00 00 00 00 00 00 00 00 00 00 00 00 00 00 00 00 00 00 00 00 00 00 00 00 00 00 00 00 00 00 00 00 00 00 00 00 00 00 
Raw Response and len 87: 00 00 00 00 00 00 00 00 00 00 00 00 00 00 00 00 00 00 00 00 FE 00 00 00 00 00 00 00 00 00 00 00 00 00 00 00 00 00 00 00 00 00 00 00 00 00 00 00 00 00 00 00 00 00 00 00 00 00 00 00 FC 00 00 00 00 00 00 00 00 00 00 00 00 00 00 00 00 00 00 00 00 00 00 00 00 00 00 
-->Received Button/Knob 0 state : 0
Decrypted Response: F7 04 FB 02 FF 07 F7 02 00 00 00 FA 03 00 00 00 00 00 00 00 FE 00 00 00 00 00 00 00 00 00 00 00 00 00 00 00 00 00 00 00 00 00 00 00 00 00 00 00 00 00 00 00 00 00 00 00 00 00 00 00 FC 00 00 00 00 00 00 00 00 00 00 00 00 00 00 00 00 00 00 00 00 00 00 00 00 00 00 
Raw Response and len 120: 00 00 00 00 00 00 00 00 00 00 00 00 00 00 00 FE 00 FE 00 00 00 00 00 00 00 00 00 00 00 00 00 00 00 00 00 00 00 00 00 00 00 00 00 00 00 00 00 00 00 00 00 FE 00 00 00 00 00 00 00 00 00 00 00 00 00 00 00 00 00 00 00 05 00 00 00 00 00 00 00 00 00 00 FC 00 FC 00 00 00 00 00 00 00 00 00 00 00 00 00 00 00 00 00 00 00 00 00 00 00 00 00 00 00 00 00 00 00 00 00 00 00 
-->Received Button/Knob 0 state : 0
Decrypted Response: F7 04 FB 02 FF 07 F7 02 00 00 00 FA 03 00 00 FE 00 FE 00 00 00 00 00 00 00 00 00 00 00 00 00 00 00 00 00 00 00 00 00 00 00 00 00 00 00 00 00 00 00 00 00 FE 00 00 00 00 00 00 00 00 00 00 00 00 00 00 00 00 00 00 00 05 00 00 00 00 00 00 00 00 00 00 FC 00 FC 00 00 00 00 00 00 00 00 00 00 00 00 00 00 00 00 00 00 00 00 00 00 00 00 00 00 00 00 00 00 00 00 00 00 00 
Raw Response and len 120: 00 00 00 00 00 00 00 00 00 00 00 00 00 00 00 00 00 00 00 00 00 00 00 00 00 00 00 00 00 00 00 00 00 00 00 00 00 00 00 00 00 00 00 00 00 00 00 00 00 00 00 00 00 00 00 FC 00 FC 00 00 00 00 00 00 00 00 00 00 00 00 00 00 00 00 00 00 00 00 00 00 00 00 00 00 00 00 00 00 FE 00 00 00 00 00 00 00 00 00 00 00 00 00 00 00 00 00 00 00 00 00 00 00 00 00 00 00 00 00 00 00 
-->Received Button/Knob 0 state : 0
Decrypted Response: F7 04 FB 02 FF 07 F7 02 00 00 00 FA 03 00 00 00 00 00 00 00 00 00 00 00 00 00 00 00 00 00 00 00 00 00 00 00 00 00 00 00 00 00 00 00 00 00 00 00 00 00 00 00 00 00 00 FC 00 FC 00 00 00 00 00 00 00 00 00 00 00 00 00 00 00 00 00 00 00 00 00 00 00 00 00 00 00 00 00 00 FE 00 00 00 00 00 00 00 00 00 00 00 00 00 00 00 00 00 00 00 00 00 00 00 00 00 00 00 00 00 00 00 
Raw Response and len 120: 00 00 00 00 00 00 00 00 00 00 00 00 00 00 00 00 00 00 00 00 00 00 00 00 00 00 00 00 00 00 00 00 00 FE 00 00 00 00 00 00 00 00 00 00 00 00 00 00 00 00 00 00 00 00 00 00 00 00 FC 00 00 00 00 00 00 00 00 00 00 00 00 00 00 00 00 00 00 00 00 00 00 00 00 00 00 00 00 00 00 00 00 00 00 00 00 00 00 00 00 00 00 00 00 00 00 00 00 00 00 00 00 00 00 00 00 00 00 00 00 00 
-->Received Button/Knob 0 state : 0
Decrypted Response: F7 04 FB 02 FF 07 F7 02 00 00 00 FA 03 00 00 00 00 00 00 00 00 00 00 00 00 00 00 00 00 00 00 00 00 FE 00 00 00 00 00 00 00 00 00 00 00 00 00 00 00 00 00 00 00 00 00 00 00 00 FC 00 00 00 00 00 00 00 00 00 00 00 00 00 00 00 00 00 00 00 00 00 00 00 00 00 00 00 00 00 00 00 00 00 00 00 00 00 00 00 00 00 00 00 00 00 00 00 00 00 00 00 00 00 00 00 00 00 00 00 00 00 
Raw Response and len 120: 00 00 00 00 00 00 00 00 00 00 00 00 00 00 00 00 00 00 00 00 00 00 00 00 00 00 00 00 00 00 00 00 00 00 00 00 00 00 00 00 00 00 00 00 00 00 00 00 00 00 00 00 00 00 00 00 00 00 00 00 00 00 00 00 00 00 00 00 00 00 00 00 00 00 00 00 00 00 00 00 00 00 00 00 00 00 00 00 00 00 00 00 00 00 00 00 00 00 00 00 00 00 00 00 00 00 00 00 00 00 00 00 00 00 00 00 00 00 00 00 
-->Received Button/Knob 0 state : 0
Decrypted Response: F7 04 FB 02 FF 07 F7 02 00 00 00 FA 03 00 00 00 00 00 00 00 00 00 00 00 00 00 00 00 00 00 00 00 00 00 00 00 00 00 00 00 00 00 00 00 00 00 00 00 00 00 00 00 00 00 00 00 00 00 00 00 00 00 00 00 00 00 00 00 00 00 00 00 00 00 00 00 00 00 00 00 00 00 00 00 00 00 00 00 00 00 00 00 00 00 00 00 00 00 00 00 00 00 00 00 00 00 00 00 00 00 00 00 00 00 00 00 00 00 00 00 
Raw Response and len 120: 00 00 00 00 00 00 00 00 00 00 00 00 00 00 00 00 00 00 00 00 00 00 00 00 03 00 00 00 FF 00 00 00 00 00 00 00 00 00 00 00 00 00 00 00 00 00 FE 00 FE 00 00 00 00 00 00 00 00 00 00 00 00 00 00 00 00 00 00 00 00 00 00 00 00 00 00 00 00 00 FC 00 FC 00 00 FE 00 00 00 00 00 00 00 00 FC 00 00 00 00 00 00 00 00 00 00 00 00 00 00 00 00 00 00 00 00 FC 00 00 00 00 00 00 
-->Received Button/Knob 0 state : 0
Decrypted Response: F7 04 FB 02 FF 07 F7 02 00 00 00 FA 03 00 00 00 00 00 00 00 00 00 00 00 03 00 00 00 FF 00 00 00 00 00 00 00 00 00 00 00 00 00 00 00 00 00 FE 00 FE 00 00 00 00 00 00 00 00 00 00 00 00 00 00 00 00 00 00 00 00 00 00 00 00 00 00 00 00 00 FC 00 FC 00 00 FE 00 00 00 00 00 00 00 00 FC 00 00 00 00 00 00 00 00 00 00 00 00 00 00 00 00 00 00 00 00 FC 00 00 00 00 00 00 
Raw Response and len 120: 00 FE 00 FE 00 00 00 00 00 00 00 00 00 00 00 00 00 00 00 00 00 00 00 00 00 00 00 00 00 00 00 00 00 00 00 00 00 00 00 00 00 00 00 00 00 00 00 00 00 00 00 00 00 00 00 00 00 00 00 00 00 00 00 00 00 00 00 00 00 FC 00 00 00 00 FC 00 00 00 00 FE 00 FE 00 00 00 00 00 00 00 00 00 00 00 00 00 00 00 00 00 00 00 00 00 00 00 00 00 00 00 00 FC 00 00 00 00 00 00 00 00 00 
-->Received Button/Knob 0 state : 0
Decrypted Response: F7 02 FB 00 FF 07 F7 02 00 00 00 FA 03 00 00 00 00 00 00 00 00 00 00 00 00 00 00 00 00 00 00 00 00 00 00 00 00 00 00 00 00 00 00 00 00 00 00 00 00 00 00 00 00 00 00 00 00 00 00 00 00 00 00 00 00 00 00 00 00 FC 00 00 00 00 FC 00 00 00 00 FE 00 FE 00 00 00 00 00 00 00 00 00 00 00 00 00 00 00 00 00 00 00 00 00 00 00 00 00 00 00 00 FC 00 00 00 00 00 00 00 00 00 
Raw Response and len 110: 00 00 00 00 00 00 00 00 00 00 00 00 00 00 00 00 00 00 00 00 00 00 00 00 00 00 00 00 00 00 00 00 00 00 00 00 00 00 00 00 00 00 00 00 00 00 00 00 00 00 00 00 00 00 00 00 00 00 00 00 00 00 00 00 00 00 00 00 00 00 00 00 00 00 00 00 00 00 00 00 00 00 00 00 00 FE 00 00 00 00 00 00 00 00 00 00 00 00 00 00 00 00 FC 00 00 00 00 00 FC 00 
-->Received Button/Knob 0 state : 0
Decrypted Response: F7 04 FB 02 FF 07 F7 02 00 00 00 FA 03 00 00 00 00 00 00 00 00 00 00 00 00 00 00 00 00 00 00 00 00 00 00 00 00 00 00 00 00 00 00 00 00 00 00 00 00 00 00 00 00 00 00 00 00 00 00 00 00 00 00 00 00 00 00 00 00 00 00 00 00 00 00 00 00 00 00 00 00 00 00 00 00 FE 00 00 00 00 00 00 00 00 00 00 00 00 00 00 00 00 FC 00 00 00 00 00 FC 00 
Raw Response and len 64: 00 00 00 00 00 00 00 00 00 00 00 FE 00 00 00 FC 00 00 00 00 00 00 00 00 FE 00 FE 00 00 00 FE 00 00 00 00 00 00 00 00 00 00 00 00 00 00 00 00 00 00 00 00 00 00 00 00 00 00 00 10 00 80 00 00 FC 
-->Received Button/Knob 0 state : 0
Decrypted Response: F7 04 FB 02 FF 07 F7 02 00 00 00 F8 03 00 00 FC 00 00 00 00 00 00 00 00 FE 00 FE 00 00 00 FE 00 00 00 00 00 00 00 00 00 00 00 00 00 00 00 00 00 00 00 00 00 00 00 00 00 00 00 10 00 80 00 00 FC 
Raw Response and len 120: 00 00 00 00 00 00 00 00 00 00 00 00 00 00 00 00 00 00 00 00 00 00 00 00 00 00 00 00 00 00 00 00 00 00 00 00 00 00 00 00 00 00 00 00 00 00 00 00 00 00 00 00 00 00 00 00 00 00 00 00 00 00 00 00 00 00 00 00 00 00 00 00 00 00 00 00 00 00 00 00 00 00 00 00 00 00 00 00 00 00 00 00 00 00 00 00 00 00 00 00 00 00 00 00 00 00 00 00 00 00 00 00 00 00 00 00 00 00 00 00 
-->Received Button/Knob 0 state : 0
Decrypted Response: F7 04 FB 02 FF 07 F7 02 00 00 00 FA 03 00 00 00 00 00 00 00 00 00 00 00 00 00 00 00 00 00 00 00 00 00 00 00 00 00 00 00 00 00 00 00 00 00 00 00 00 00 00 00 00 00 00 00 00 00 00 00 00 00 00 00 00 00 00 00 00 00 00 00 00 00 00 00 00 00 00 00 00 00 00 00 00 00 00 00 00 00 00 00 00 00 00 00 00 00 00 00 00 00 00 00 00 00 00 00 00 00 00 00 00 00 00 00 00 00 00 00 
Raw Response and len 37: 00 00 00 00 00 00 00 00 01 00 00 3F 70 00 30 80 00 00 00 00 00 00 00 00 F0 00 00 00 00 00 00 00 00 00 00 00 00 
-->Received Button/Knob 0 state : 0
Decrypted Response: F7 04 FB 02 FF 07 F7 02 01 00 00 39 73 00 30 80 00 00 00 00 00 00 00 00 F0 00 00 00 00 00 00 00 00 00 00 00 00 
Raw Response and len 3: 00 00 00 
Decrypted Response: 00 00 00 
Raw Response and len 120: 00 00 00 00 00 00 00 00 00 00 00 00 00 00 00 00 00 00 00 00 00 00 00 00 00 00 00 00 00 00 00 00 00 00 00 00 00 00 00 00 00 00 00 00 00 00 00 00 00 00 00 00 00 00 00 00 00 00 00 00 00 00 00 00 00 00 00 00 00 00 00 00 00 00 00 00 00 00 00 00 00 00 00 00 00 00 00 00 00 00 00 00 00 00 00 00 00 00 00 00 00 00 00 00 00 00 00 00 00 00 00 00 00 00 00 00 00 00 B6 25 
-->Received Button/Knob 0 state : 0
Decrypted Response: F7 04 FB 02 FF 07 F7 02 00 00 00 FA 03 00 00 00 00 00 00 00 00 00 00 00 00 00 00 00 00 00 00 00 00 00 00 00 00 00 00 00 00 00 00 00 00 00 00 00 00 00 00 00 00 00 00 00 00 00 00 00 00 00 00 00 00 00 00 00 00 00 00 00 00 00 00 00 00 00 00 00 00 00 00 00 00 00 00 00 00 00 00 00 00 00 00 00 00 00 00 00 00 00 00 00 00 00 00 00 00 00 00 00 00 00 00 00 00 00 B6 25 
Raw Response and len 120: FD FF 8B 63 AD 0F 08 53 FE 00 00 00 00 00 00 00 00 00 00 00 00 00 00 00 00 00 00 00 00 00 00 00 00 00 00 00 00 00 00 00 00 00 00 00 00 00 00 00 00 00 00 00 00 00 00 00 00 00 00 00 00 00 00 00 00 00 00 00 00 00 00 00 00 00 00 00 00 00 00 00 00 00 00 00 00 00 00 00 B1 AC 4D 44 48 56 0D 00 00 00 00 00 00 00 00 00 00 00 00 00 00 00 00 00 00 00 00 00 00 00 00 00 
-->Received Button/Knob 0 state : 0
Decrypted Response: F4 03 86 65 AC 16 FF 55 FE 00 00 FA 03 00 00 00 00 00 00 00 00 00 00 00 00 00 00 00 00 00 00 00 00 00 00 00 00 00 00 00 00 00 00 00 00 00 00 00 00 00 00 00 00 00 00 00 00 00 00 00 00 00 00 00 00 00 00 00 00 00 00 00 00 00 00 00 00 00 00 00 00 00 00 00 00 00 00 00 B1 AC 4D 44 48 56 0D 00 00 00 00 00 00 00 00 00 00 00 00 00 00 00 00 00 00 00 00 00 00 00 00 00 
Raw Response and len 120: 00 00 00 00 00 00 00 00 00 00 00 00 00 00 00 00 00 00 00 00 00 00 00 00 00 00 00 00 00 00 00 00 00 00 00 00 00 00 00 00 00 00 00 00 00 00 00 00 00 00 00 00 00 00 00 00 00 00 00 00 00 00 00 00 00 00 00 00 00 00 00 00 00 00 00 00 00 00 00 00 00 00 00 00 00 00 00 00 00 00 00 00 00 00 00 00 00 00 00 00 00 00 00 00 00 00 00 00 00 00 00 00 00 00 00 00 00 00 00 00 
-->Received Button/Knob 0 state : 0
Decrypted Response: F7 04 FB 02 FF 07 F7 02 00 00 00 FA 03 00 00 00 00 00 00 00 00 00 00 00 00 00 00 00 00 00 00 00 00 00 00 00 00 00 00 00 00 00 00 00 00 00 00 00 00 00 00 00 00 00 00 00 00 00 00 00 00 00 00 00 00 00 00 00 00 00 00 00 00 00 00 00 00 00 00 00 00 00 00 00 00 00 00 00 00 00 00 00 00 00 00 00 00 00 00 00 00 00 00 00 00 00 00 00 00 00 00 00 00 00 00 00 00 00 00 00 
Raw Response and len 120: 00 00 00 00 00 00 00 00 00 00 00 00 00 00 00 00 00 00 00 00 00 00 00 00 00 00 00 00 00 00 00 00 00 00 00 00 00 00 00 00 00 00 00 00 00 00 00 00 00 00 00 00 00 00 00 00 00 00 00 00 00 00 00 00 00 00 00 00 00 00 00 00 00 00 00 00 00 00 00 00 00 00 00 00 00 00 00 00 00 00 00 00 00 00 00 00 00 00 00 00 00 00 00 00 00 00 00 00 00 00 00 00 00 00 00 00 00 00 00 00 
-->Received Button/Knob 0 state : 0
Decrypted Response: F7 04 FB 02 FF 07 F7 02 00 00 00 FA 03 00 00 00 00 00 00 00 00 00 00 00 00 00 00 00 00 00 00 00 00 00 00 00 00 00 00 00 00 00 00 00 00 00 00 00 00 00 00 00 00 00 00 00 00 00 00 00 00 00 00 00 00 00 00 00 00 00 00 00 00 00 00 00 00 00 00 00 00 00 00 00 00 00 00 00 00 00 00 00 00 00 00 00 00 00 00 00 00 00 00 00 00 00 00 00 00 00 00 00 00 00 00 00 00 00 00 00 
Raw Response and len 120: 00 00 00 00 00 00 00 00 00 00 00 00 00 00 00 00 00 00 00 00 00 00 00 00 00 00 00 00 00 00 00 00 00 00 00 00 00 00 00 00 00 00 00 00 00 00 00 00 00 00 00 00 00 00 00 00 00 00 00 00 00 00 00 00 00 00 00 00 00 00 00 00 00 00 00 00 00 00 00 00 00 00 00 00 00 00 00 00 00 00 00 00 00 00 00 00 00 00 00 00 00 00 00 00 00 00 00 00 00 00 00 00 00 00 00 00 00 00 00 00 
-->Received Button/Knob 0 state : 0
Decrypted Response: F7 04 FB 02 FF 07 F7 02 00 00 00 FA 03 00 00 00 00 00 00 00 00 00 00 00 00 00 00 00 00 00 00 00 00 00 00 00 00 00 00 00 00 00 00 00 00 00 00 00 00 00 00 00 00 00 00 00 00 00 00 00 00 00 00 00 00 00 00 00 00 00 00 00 00 00 00 00 00 00 00 00 00 00 00 00 00 00 00 00 00 00 00 00 00 00 00 00 00 00 00 00 00 00 00 00 00 00 00 00 00 00 00 00 00 00 00 00 00 00 00 00 
Raw Response and len 120: 00 00 00 00 00 00 00 00 00 00 00 00 00 00 00 00 00 00 00 00 00 00 00 00 00 00 00 00 00 00 00 00 00 00 00 00 00 00 00 00 00 00 00 00 00 00 00 00 00 00 00 00 00 00 00 00 00 00 00 00 00 00 00 00 00 00 00 00 00 00 00 00 00 00 00 00 00 00 00 00 00 00 00 00 00 00 00 00 00 00 00 00 00 00 00 00 00 00 00 00 00 00 00 00 00 00 00 00 00 00 00 00 00 00 00 00 00 00 00 00 
-->Received Button/Knob 0 state : 0
Decrypted Response: F7 04 FB 02 FF 07 F7 02 00 00 00 FA 03 00 00 00 00 00 00 00 00 00 00 00 00 00 00 00 00 00 00 00 00 00 00 00 00 00 00 00 00 00 00 00 00 00 00 00 00 00 00 00 00 00 00 00 00 00 00 00 00 00 00 00 00 00 00 00 00 00 00 00 00 00 00 00 00 00 00 00 00 00 00 00 00 00 00 00 00 00 00 00 00 00 00 00 00 00 00 00 00 00 00 00 00 00 00 00 00 00 00 00 00 00 00 00 00 00 00 00 
Raw Response and len 120: 00 00 00 00 00 00 00 00 00 00 00 00 00 00 00 00 00 00 00 00 00 00 00 00 00 00 00 00 00 00 00 00 00 00 00 00 00 00 00 00 00 00 00 00 00 00 00 00 00 00 00 00 00 00 00 00 00 00 00 00 00 00 00 00 00 00 00 00 00 00 00 00 00 00 00 00 00 00 00 00 00 00 00 00 00 00 00 00 00 00 00 00 00 00 00 00 00 00 00 00 00 00 00 00 00 00 00 00 00 00 00 00 00 00 00 00 00 00 00 00 
-->Received Button/Knob 0 state : 0
Decrypted Response: F7 04 FB 02 FF 07 F7 02 00 00 00 FA 03 00 00 00 00 00 00 00 00 00 00 00 00 00 00 00 00 00 00 00 00 00 00 00 00 00 00 00 00 00 00 00 00 00 00 00 00 00 00 00 00 00 00 00 00 00 00 00 00 00 00 00 00 00 00 00 00 00 00 00 00 00 00 00 00 00 00 00 00 00 00 00 00 00 00 00 00 00 00 00 00 00 00 00 00 00 00 00 00 00 00 00 00 00 00 00 00 00 00 00 00 00 00 00 00 00 00 00 
Raw Response and len 120: 00 00 00 00 00 00 00 00 00 00 00 00 00 00 00 00 00 00 00 00 00 00 00 00 00 00 00 00 00 00 00 00 00 00 00 00 00 00 00 00 00 00 00 00 00 00 00 00 00 00 00 00 00 00 00 00 00 00 00 00 00 00 00 00 00 00 00 00 00 00 00 00 00 00 00 00 00 00 00 00 00 00 00 00 00 00 00 00 00 00 00 00 00 00 00 00 00 00 00 00 00 00 00 00 00 00 00 00 00 00 00 00 00 00 00 00 00 00 00 00 
-->Received Button/Knob 0 state : 0
Decrypted Response: F7 04 FB 02 FF 07 F7 02 00 00 00 FA 03 00 00 00 00 00 00 00 00 00 00 00 00 00 00 00 00 00 00 00 00 00 00 00 00 00 00 00 00 00 00 00 00 00 00 00 00 00 00 00 00 00 00 00 00 00 00 00 00 00 00 00 00 00 00 00 00 00 00 00 00 00 00 00 00 00 00 00 00 00 00 00 00 00 00 00 00 00 00 00 00 00 00 00 00 00 00 00 00 00 00 00 00 00 00 00 00 00 00 00 00 00 00 00 00 00 00 00 
Raw Response and len 120: 00 00 00 00 00 00 00 00 00 00 00 00 00 00 00 00 00 00 00 00 00 00 00 00 00 00 00 00 00 00 00 00 00 00 00 00 00 00 00 00 00 00 00 00 00 00 00 00 00 00 00 00 00 00 00 00 00 00 00 00 00 00 00 00 00 00 00 00 00 00 00 00 00 00 00 00 00 00 00 00 00 00 00 00 00 00 00 00 00 00 00 00 00 00 00 00 00 00 00 00 00 00 00 00 00 00 00 FE 00 00 00 00 00 00 00 00 00 00 00 00 
-->Received Button/Knob 0 state : 0
Decrypted Response: F7 04 FB 02 FF 07 F7 02 00 00 00 FA 03 00 00 00 00 00 00 00 00 00 00 00 00 00 00 00 00 00 00 00 00 00 00 00 00 00 00 00 00 00 00 00 00 00 00 00 00 00 00 00 00 00 00 00 00 00 00 00 00 00 00 00 00 00 00 00 00 00 00 00 00 00 00 00 00 00 00 00 00 00 00 00 00 00 00 00 00 00 00 00 00 00 00 00 00 00 00 00 00 00 00 00 00 00 00 FE 00 00 00 00 00 00 00 00 00 00 00 00 
Raw Response and len 120: 00 00 00 00 00 00 00 00 00 00 00 00 00 00 00 00 00 00 00 00 00 00 00 00 00 00 00 00 00 00 00 00 00 00 00 00 00 00 00 00 00 00 00 00 00 00 FE 00 00 00 00 00 00 FE 00 00 00 00 00 00 FE 00 00 00 00 00 00 00 00 FE 00 FF 00 FF 00 00 00 00 00 00 00 00 00 00 00 FF 00 FF 00 FE 00 00 00 00 00 00 00 00 00 00 00 00 00 00 FF 00 FE 00 00 00 00 00 00 00 00 00 00 00 00 FE 
-->Received Button/Knob 0 state : 0
Decrypted Response: F7 04 FB 02 FF 07 F7 02 00 00 00 FA 03 00 00 00 00 00 00 00 00 00 00 00 00 00 00 00 00 00 00 00 00 00 00 00 00 00 00 00 00 00 00 00 00 00 FE 00 00 00 00 00 00 FE 00 00 00 00 00 00 FE 00 00 00 00 00 00 00 00 FE 00 FF 00 FF 00 00 00 00 00 00 00 00 00 00 00 FF 00 FF 00 FE 00 00 00 00 00 00 00 00 00 00 00 00 00 00 FF 00 FE 00 00 00 00 00 00 00 00 00 00 00 00 FE 
Raw Response and len 120: 00 FE 00 00 00 00 00 00 00 00 00 00 00 00 00 FF 00 FE 00 FE 00 FF 00 00 00 00 00 00 00 00 00 00 00 FF 00 FE 00 00 00 00 00 00 00 00 00 00 00 00 FE 00 FE 00 00 00 00 00 00 00 00 00 00 00 00 FF 00 FF 00 FE 00 00 00 00 00 00 00 00 00 00 00 00 00 00 00 00 00 00 00 00 00 00 00 00 00 00 00 00 00 00 00 00 00 00 00 00 00 00 00 00 00 00 00 00 00 00 00 00 00 00 00 00 
-->Received Button/Knob 0 state : 0
Decrypted Response: F7 02 FB 02 FF 07 F7 02 00 00 00 FA 03 00 00 FF 00 FE 00 FE 00 FF 00 00 00 00 00 00 00 00 00 00 00 FF 00 FE 00 00 00 00 00 00 00 00 00 00 00 00 FE 00 FE 00 00 00 00 00 00 00 00 00 00 00 00 FF 00 FF 00 FE 00 00 00 00 00 00 00 00 00 00 00 00 00 00 00 00 00 00 00 00 00 00 00 00 00 00 00 00 00 00 00 00 00 00 00 00 00 00 00 00 00 00 00 00 00 00 00 00 00 00 00 00 
Raw Response and len 120: 00 00 00 00 00 00 00 00 00 00 00 00 00 00 00 00 00 00 00 00 00 00 00 00 00 00 00 00 00 00 00 00 00 00 00 00 00 00 00 00 00 00 00 00 00 00 00 00 00 00 00 00 00 00 00 00 00 00 00 00 00 00 00 00 00 00 00 00 00 00 00 00 00 00 00 00 00 00 00 00 00 00 00 00 00 00 00 00 00 00 00 00 00 00 00 00 00 00 00 00 00 00 00 00 00 00 00 00 00 00 00 00 00 00 00 00 00 00 00 00 
-->Received Button/Knob 0 state : 0
Decrypted Response: F7 04 FB 02 FF 07 F7 02 00 00 00 FA 03 00 00 00 00 00 00 00 00 00 00 00 00 00 00 00 00 00 00 00 00 00 00 00 00 00 00 00 00 00 00 00 00 00 00 00 00 00 00 00 00 00 00 00 00 00 00 00 00 00 00 00 00 00 00 00 00 00 00 00 00 00 00 00 00 00 00 00 00 00 00 00 00 00 00 00 00 00 00 00 00 00 00 00 00 00 00 00 00 00 00 00 00 00 00 00 00 00 00 00 00 00 00 00 00 00 00 00 
Raw Response and len 120: 00 00 00 00 00 00 00 00 00 00 00 00 00 00 00 00 00 00 00 00 00 00 00 00 00 00 00 00 00 00 00 00 00 00 00 00 00 00 00 00 00 00 00 00 00 00 00 00 00 00 00 00 00 00 00 00 00 00 00 00 00 00 00 00 00 00 00 00 00 00 00 00 00 00 00 00 00 00 00 00 00 00 00 00 00 00 00 00 00 00 FE 00 FE 00 FE 00 00 FF 00 FF 00 00 02 00 00 00 00 FC 00 FF 00 FE 00 00 00 00 00 FE 00 FF 
-->Received Button/Knob 0 state : 0
Decrypted Response: F7 04 FB 02 FF 07 F7 02 00 00 00 FA 03 00 00 00 00 00 00 00 00 00 00 00 00 00 00 00 00 00 00 00 00 00 00 00 00 00 00 00 00 00 00 00 00 00 00 00 00 00 00 00 00 00 00 00 00 00 00 00 00 00 00 00 00 00 00 00 00 00 00 00 00 00 00 00 00 00 00 00 00 00 00 00 00 00 00 00 00 00 FE 00 FE 00 FE 00 00 FF 00 FF 00 00 02 00 00 00 00 FC 00 FF 00 FE 00 00 00 00 00 FE 00 FF 
Raw Response and len 40: 00 00 00 FE 00 FE 00 FE 00 00 00 00 00 FF 00 FF 00 00 00 00 FE 00 00 00 00 00 00 00 00 00 00 00 00 00 00 FC 00 00 FF 00 
-->Received Button/Knob 0 state : 0
Decrypted Response: F7 04 FB 00 FF 05 F7 00 00 00 00 FA 03 FF 00 FF 00 00 00 00 FE 00 00 00 00 00 00 00 00 00 00 00 00 00 00 FC 00 00 FF 00 
Raw Response and len 5: 00 00 04 80 F0 
Decrypted Response: 00 00 04 80 F0 
Raw Response and len 106: 00 00 00 00 00 00 00 00 00 00 00 00 00 00 00 00 00 00 00 00 F8 00 F8 00 FE 00 FE 00 FF 00 00 00 FE 00 00 FF 00 00 00 00 00 00 00 00 00 00 00 00 00 00 00 00 00 00 00 00 00 00 00 00 00 00 00 00 00 00 00 00 00 00 00 00 00 00 00 00 00 00 00 00 00 00 00 00 00 00 00 00 00 00 00 FE 00 FC 00 F8 00 FE 00 F8 00 FC 00 FF 00 FF 
-->Received Button/Knob 0 state : 0
Decrypted Response: F7 04 FB 02 FF 07 F7 02 00 00 00 FA 03 00 00 00 00 00 00 00 F8 00 F8 00 FE 00 FE 00 FF 00 00 00 FE 00 00 FF 00 00 00 00 00 00 00 00 00 00 00 00 00 00 00 00 00 00 00 00 00 00 00 00 00 00 00 00 00 00 00 00 00 00 00 00 00 00 00 00 00 00 00 00 00 00 00 00 00 00 00 00 00 00 00 FE 00 FC 00 F8 00 FE 00 F8 00 FC 00 FF 00 FF 
Raw Response and len 120: 00 00 00 00 00 00 00 00 00 00 00 00 00 00 00 00 00 00 00 00 00 00 00 00 00 00 00 00 00 00 00 00 00 00 00 00 00 00 00 00 00 00 00 00 00 00 00 00 00 00 00 00 00 00 00 00 00 00 00 00 00 00 00 8D B6 25 FD FF FB 00 00 00 00 00 00 00 00 00 00 00 00 00 00 00 00 00 00 00 00 00 00 00 00 00 00 00 00 00 00 00 00 00 00 00 00 00 00 00 00 00 00 00 00 00 00 00 00 00 00 00 
-->Received Button/Knob 0 state : 0
Decrypted Response: F7 04 FB 02 FF 07 F7 02 00 00 00 FA 03 00 00 00 00 00 00 00 00 00 00 00 00 00 00 00 00 00 00 00 00 00 00 00 00 00 00 00 00 00 00 00 00 00 00 00 00 00 00 00 00 00 00 00 00 00 00 00 00 00 00 8D B6 25 FD FF FB 00 00 00 00 00 00 00 00 00 00 00 00 00 00 00 00 00 00 00 00 00 00 00 00 00 00 00 00 00 00 00 00 00 00 00 00 00 00 00 00 00 00 00 00 00 00 00 00 00 00 00 
Raw Response and len 120: 00 00 00 00 00 FE 00 FE 00 FE 00 00 FF 00 FF 00 FF 00 FF 00 FF 00 FF 00 FE 00 00 FE 00 00 00 00 00 00 00 00 00 00 00 00 00 00 00 00 00 00 00 00 00 00 00 00 00 00 00 00 00 00 00 00 00 00 00 00 00 00 00 00 00 00 00 00 00 00 00 00 00 00 00 00 00 00 00 00 00 00 00 00 00 00 00 00 00 00 00 00 00 00 00 00 00 00 00 00 00 00 00 00 00 00 00 00 00 00 00 00 00 00 00 00 
-->Received Button/Knob 254 state : 0
Decrypted Response: F7 04 FB 02 FF 05 F7 00 00 FE 00 FA 02 00 FF 00 FF 00 FF 00 FF 00 FF 00 FE 00 00 FE 00 00 00 00 00 00 00 00 00 00 00 00 00 00 00 00 00 00 00 00 00 00 00 00 00 00 00 00 00 00 00 00 00 00 00 00 00 00 00 00 00 00 00 00 00 00 00 00 00 00 00 00 00 00 00 00 00 00 00 00 00 00 00 00 00 00 00 00 00 00 00 00 00 00 00 00 00 00 00 00 00 00 00 00 00 00 00 00 00 00 00 00 
Raw Response and len 120: 00 00 00 00 00 00 00 00 00 00 00 00 00 00 00 00 00 00 00 00 00 00 00 00 00 00 00 00 00 00 00 00 00 00 00 00 00 00 00 00 00 00 00 00 00 00 00 00 00 00 00 00 00 00 00 00 00 00 00 00 00 00 00 00 00 00 00 00 00 00 00 00 00 00 00 00 00 00 00 00 00 00 00 00 00 00 00 00 00 00 00 00 00 00 00 00 00 00 00 00 00 00 00 00 00 00 00 00 00 00 00 00 00 00 00 00 00 00 00 00 
-->Received Button/Knob 0 state : 0
Decrypted Response: F7 04 FB 02 FF 07 F7 02 00 00 00 FA 03 00 00 00 00 00 00 00 00 00 00 00 00 00 00 00 00 00 00 00 00 00 00 00 00 00 00 00 00 00 00 00 00 00 00 00 00 00 00 00 00 00 00 00 00 00 00 00 00 00 00 00 00 00 00 00 00 00 00 00 00 00 00 00 00 00 00 00 00 00 00 00 00 00 00 00 00 00 00 00 00 00 00 00 00 00 00 00 00 00 00 00 00 00 00 00 00 00 00 00 00 00 00 00 00 00 00 00 
Raw Response and len 120: 00 00 00 00 00 00 00 00 00 00 00 00 00 00 00 00 00 00 00 00 00 00 00 00 00 00 00 00 00 00 00 00 00 00 00 00 00 00 00 00 00 00 00 00 00 00 00 00 00 00 00 00 00 00 00 00 00 00 00 00 00 00 00 00 00 00 00 00 00 00 00 00 00 00 00 00 00 00 00 00 00 00 00 00 00 00 00 00 00 00 00 00 00 00 00 00 00 00 5B 52 FF 8B 63 AD 0E 0A 5D D6 00 00 00 00 00 00 00 00 00 00 00 00 
-->Received Button/Knob 0 state : 0
Decrypted Response: F7 04 FB 02 FF 07 F7 02 00 00 00 FA 03 00 00 00 00 00 00 00 00 00 00 00 00 00 00 00 00 00 00 00 00 00 00 00 00 00 00 00 00 00 00 00 00 00 00 00 00 00 00 00 00 00 00 00 00 00 00 00 00 00 00 00 00 00 00 00 00 00 00 00 00 00 00 00 00 00 00 00 00 00 00 00 00 00 00 00 00 00 00 00 00 00 00 00 00 00 5B 52 FF 8B 63 AD 0E 0A 5D D6 00 00 00 00 00 00 00 00 00 00 00 00 
Raw Response and len 120: 00 00 00 00 00 00 00 00 00 00 00 00 00 00 00 00 00 00 00 00 00 00 00 00 00 00 00 00 00 00 00 00 00 00 00 00 00 00 00 00 00 00 00 00 00 00 00 00 00 00 00 00 00 00 00 00 00 00 00 00 00 00 00 00 00 00 00 00 00 00 00 00 00 00 00 00 00 00 00 00 00 00 00 00 00 00 00 00 00 00 00 00 00 00 00 00 00 00 00 00 00 00 00 00 00 00 00 00 00 00 00 00 00 00 00 00 00 00 00 00 
-->Received Button/Knob 0 state : 0
Decrypted Response: F7 04 FB 02 FF 07 F7 02 00 00 00 FA 03 00 00 00 00 00 00 00 00 00 00 00 00 00 00 00 00 00 00 00 00 00 00 00 00 00 00 00 00 00 00 00 00 00 00 00 00 00 00 00 00 00 00 00 00 00 00 00 00 00 00 00 00 00 00 00 00 00 00 00 00 00 00 00 00 00 00 00 00 00 00 00 00 00 00 00 00 00 00 00 00 00 00 00 00 00 00 00 00 00 00 00 00 00 00 00 00 00 00 00 00 00 00 00 00 00 00 00 
Raw Response and len 120: 00 00 00 00 00 00 00 00 00 00 00 00 00 00 00 00 00 00 00 00 00 00 00 00 00 00 00 00 00 00 00 00 00 00 00 00 00 00 00 00 00 00 00 00 00 00 00 00 00 00 00 00 00 00 00 00 00 00 00 00 00 00 00 00 00 00 00 00 00 00 00 00 00 00 00 00 00 00 00 00 00 00 00 00 00 00 00 00 00 00 00 00 00 00 00 00 00 00 00 00 00 00 00 00 00 00 00 00 00 00 00 00 00 00 00 00 00 00 00 00 
-->Received Button/Knob 0 state : 0
Decrypted Response: F7 04 FB 02 FF 07 F7 02 00 00 00 FA 03 00 00 00 00 00 00 00 00 00 00 00 00 00 00 00 00 00 00 00 00 00 00 00 00 00 00 00 00 00 00 00 00 00 00 00 00 00 00 00 00 00 00 00 00 00 00 00 00 00 00 00 00 00 00 00 00 00 00 00 00 00 00 00 00 00 00 00 00 00 00 00 00 00 00 00 00 00 00 00 00 00 00 00 00 00 00 00 00 00 00 00 00 00 00 00 00 00 00 00 00 00 00 00 00 00 00 00 
Raw Response and len 120: 00 00 00 00 00 00 00 00 00 00 00 00 00 00 00 00 00 00 00 00 00 00 00 00 00 00 00 00 00 00 00 00 00 00 00 00 00 00 00 00 00 00 00 00 00 00 00 00 00 00 00 00 00 00 00 00 00 00 00 00 00 00 00 00 00 00 00 00 00 00 00 00 00 00 00 00 00 00 00 00 00 00 00 00 00 00 00 00 00 00 00 00 00 00 00 00 00 00 00 00 00 00 00 00 00 00 00 00 00 00 00 00 00 00 00 00 00 00 00 00 
-->Received Button/Knob 0 state : 0
Decrypted Response: F7 04 FB 02 FF 07 F7 02 00 00 00 FA 03 00 00 00 00 00 00 00 00 00 00 00 00 00 00 00 00 00 00 00 00 00 00 00 00 00 00 00 00 00 00 00 00 00 00 00 00 00 00 00 00 00 00 00 00 00 00 00 00 00 00 00 00 00 00 00 00 00 00 00 00 00 00 00 00 00 00 00 00 00 00 00 00 00 00 00 00 00 00 00 00 00 00 00 00 00 00 00 00 00 00 00 00 00 00 00 00 00 00 00 00 00 00 00 00 00 00 00 
Raw Response and len 120: 00 00 00 00 00 00 00 00 00 00 00 00 00 00 00 00 00 00 00 00 00 00 00 00 00 00 00 00 00 00 00 00 00 00 00 00 00 00 00 00 00 00 00 00 00 00 00 00 00 00 00 00 00 00 00 00 00 00 00 00 00 00 00 00 00 00 00 00 00 00 00 00 00 00 00 00 00 00 00 00 00 00 00 00 00 00 00 00 00 00 00 00 00 00 00 00 00 00 00 00 00 00 00 00 00 00 00 00 00 00 00 00 00 00 00 00 00 00 00 00 
-->Received Button/Knob 0 state : 0
Decrypted Response: F7 04 FB 02 FF 07 F7 02 00 00 00 FA 03 00 00 00 00 00 00 00 00 00 00 00 00 00 00 00 00 00 00 00 00 00 00 00 00 00 00 00 00 00 00 00 00 00 00 00 00 00 00 00 00 00 00 00 00 00 00 00 00 00 00 00 00 00 00 00 00 00 00 00 00 00 00 00 00 00 00 00 00 00 00 00 00 00 00 00 00 00 00 00 00 00 00 00 00 00 00 00 00 00 00 00 00 00 00 00 00 00 00 00 00 00 00 00 00 00 00 00 
Raw Response and len 120: 00 00 00 00 00 00 00 00 00 00 00 00 00 00 00 00 00 00 00 00 00 00 00 00 00 00 00 00 00 00 00 00 00 00 00 00 00 00 00 00 00 00 00 00 00 00 00 00 00 00 00 00 00 00 00 00 00 00 00 00 00 00 00 00 00 00 00 00 00 00 00 00 00 00 00 00 00 00 00 00 00 00 00 00 00 00 00 00 00 00 00 00 00 00 00 00 00 00 00 00 00 00 00 00 00 00 00 00 00 00 00 00 00 00 00 00 00 00 00 00 
-->Received Button/Knob 0 state : 0
Decrypted Response: F7 04 FB 02 FF 07 F7 02 00 00 00 FA 03 00 00 00 00 00 00 00 00 00 00 00 00 00 00 00 00 00 00 00 00 00 00 00 00 00 00 00 00 00 00 00 00 00 00 00 00 00 00 00 00 00 00 00 00 00 00 00 00 00 00 00 00 00 00 00 00 00 00 00 00 00 00 00 00 00 00 00 00 00 00 00 00 00 00 00 00 00 00 00 00 00 00 00 00 00 00 00 00 00 00 00 00 00 00 00 00 00 00 00 00 00 00 00 00 00 00 00 
Raw Response and len 120: 00 00 00 00 00 00 00 00 00 00 00 00 00 00 00 00 00 00 00 00 00 00 00 00 00 00 00 00 00 00 00 00 00 00 00 00 00 00 00 00 00 00 00 00 00 00 00 00 00 00 00 00 00 00 00 00 00 00 00 00 00 00 00 00 00 00 00 00 00 00 00 00 00 00 00 00 00 00 00 00 00 00 00 00 00 00 00 00 00 00 00 00 00 00 00 00 00 00 00 00 00 00 00 00 00 00 00 00 00 00 00 00 00 00 00 00 00 00 00 00 
-->Received Button/Knob 0 state : 0
Decrypted Response: F7 04 FB 02 FF 07 F7 02 00 00 00 FA 03 00 00 00 00 00 00 00 00 00 00 00 00 00 00 00 00 00 00 00 00 00 00 00 00 00 00 00 00 00 00 00 00 00 00 00 00 00 00 00 00 00 00 00 00 00 00 00 00 00 00 00 00 00 00 00 00 00 00 00 00 00 00 00 00 00 00 00 00 00 00 00 00 00 00 00 00 00 00 00 00 00 00 00 00 00 00 00 00 00 00 00 00 00 00 00 00 00 00 00 00 00 00 00 00 00 00 00 
Raw Response and len 120: 00 00 00 00 00 00 00 00 00 00 00 00 00 00 00 00 00 00 00 00 00 00 00 00 00 00 00 00 00 00 00 00 00 00 00 00 00 00 00 00 00 00 00 00 00 00 00 00 00 00 00 00 00 00 00 00 00 00 00 00 00 00 00 00 00 00 00 00 00 00 00 00 00 00 00 00 00 00 00 00 00 00 00 00 00 00 00 00 00 00 00 00 00 00 00 00 00 00 00 00 00 00 00 00 00 00 00 00 00 00 00 00 00 00 00 00 00 00 00 00 
-->Received Button/Knob 0 state : 0
Decrypted Response: F7 04 FB 02 FF 07 F7 02 00 00 00 FA 03 00 00 00 00 00 00 00 00 00 00 00 00 00 00 00 00 00 00 00 00 00 00 00 00 00 00 00 00 00 00 00 00 00 00 00 00 00 00 00 00 00 00 00 00 00 00 00 00 00 00 00 00 00 00 00 00 00 00 00 00 00 00 00 00 00 00 00 00 00 00 00 00 00 00 00 00 00 00 00 00 00 00 00 00 00 00 00 00 00 00 00 00 00 00 00 00 00 00 00 00 00 00 00 00 00 00 00 
Raw Response and len 120: 00 00 00 00 00 00 00 00 00 00 00 00 00 00 00 00 00 00 00 00 00 00 00 00 00 00 00 00 00 00 00 00 00 00 00 00 00 00 00 00 00 00 00 00 00 00 00 00 00 00 00 00 00 00 00 00 00 00 00 00 00 00 00 00 00 00 00 00 00 00 00 00 00 00 00 00 00 00 00 00 00 00 00 00 00 00 00 00 00 00 00 00 00 00 00 00 00 00 00 00 00 00 00 00 00 00 00 00 00 00 00 00 00 00 00 00 00 00 00 00 
-->Received Button/Knob 0 state : 0
Decrypted Response: F7 04 FB 02 FF 07 F7 02 00 00 00 FA 03 00 00 00 00 00 00 00 00 00 00 00 00 00 00 00 00 00 00 00 00 00 00 00 00 00 00 00 00 00 00 00 00 00 00 00 00 00 00 00 00 00 00 00 00 00 00 00 00 00 00 00 00 00 00 00 00 00 00 00 00 00 00 00 00 00 00 00 00 00 00 00 00 00 00 00 00 00 00 00 00 00 00 00 00 00 00 00 00 00 00 00 00 00 00 00 00 00 00 00 00 00 00 00 00 00 00 00 
Raw Response and len 120: 00 00 00 00 00 00 00 00 00 00 00 00 00 00 00 00 00 00 00 00 00 00 00 00 00 00 00 00 00 00 00 00 00 00 00 00 00 00 00 00 00 00 00 00 00 00 00 00 00 00 00 00 00 00 00 00 00 00 00 00 00 00 00 00 00 00 00 00 00 00 00 00 00 00 00 00 00 00 00 00 00 00 00 00 00 00 00 00 00 00 00 00 00 00 00 00 00 00 00 00 00 00 00 00 00 00 00 00 00 00 00 00 00 00 00 00 00 00 00 00 
-->Received Button/Knob 0 state : 0
Decrypted Response: F7 04 FB 02 FF 07 F7 02 00 00 00 FA 03 00 00 00 00 00 00 00 00 00 00 00 00 00 00 00 00 00 00 00 00 00 00 00 00 00 00 00 00 00 00 00 00 00 00 00 00 00 00 00 00 00 00 00 00 00 00 00 00 00 00 00 00 00 00 00 00 00 00 00 00 00 00 00 00 00 00 00 00 00 00 00 00 00 00 00 00 00 00 00 00 00 00 00 00 00 00 00 00 00 00 00 00 00 00 00 00 00 00 00 00 00 00 00 00 00 00 00 
Raw Response and len 120: 00 00 00 00 00 00 00 00 00 00 00 00 00 00 00 00 00 00 00 00 00 00 00 00 00 00 00 00 00 00 00 00 00 00 00 00 00 00 00 00 00 00 00 00 00 00 00 00 00 00 00 00 00 00 00 00 00 00 00 00 00 00 00 00 00 00 00 00 00 00 00 00 00 00 00 00 00 00 00 00 00 00 00 00 00 00 00 00 00 00 FE 00 FE 00 FE 00 FF 00 00 00 FE 00 FF 00 FF 00 FF 00 FF 00 FF 00 FF 00 00 00 FF 00 FF 00 
-->Received Button/Knob 0 state : 0
Decrypted Response: F7 04 FB 02 FF 07 F7 02 00 00 00 FA 03 00 00 00 00 00 00 00 00 00 00 00 00 00 00 00 00 00 00 00 00 00 00 00 00 00 00 00 00 00 00 00 00 00 00 00 00 00 00 00 00 00 00 00 00 00 00 00 00 00 00 00 00 00 00 00 00 00 00 00 00 00 00 00 00 00 00 00 00 00 00 00 00 00 00 00 00 00 FE 00 FE 00 FE 00 FF 00 00 00 FE 00 FF 00 FF 00 FF 00 FF 00 FF 00 FF 00 00 00 FF 00 FF 00 
Raw Response and len 120: FF 00 FF 00 FF 00 FE 00 FE 00 FF 00 FF 00 FF 00 FF 00 FF 00 00 FF 00 FF 00 00 FF 00 FE 00 FF 00 FE 00 FC 00 FF 00 FE 00 FE 00 FE 00 FF 00 FF 00 FE 00 FF 00 FE 00 FE 00 FE 00 FC 00 FE 00 FE 00 FF 00 FF 00 FE 00 F8 00 FE 00 FE 00 FE 00 FE 00 FF 00 FE 00 FC 00 FE 00 FF 00 FF 00 FF 00 FF 00 FE 00 FF 00 FF 00 FF 00 FE 00 FE 00 FE 00 FE 00 FE 00 FF 00 FF 00 FF 00 
-->Received Button/Knob 0 state : 135
Decrypted Response: F6 04 FA 02 FE 07 F5 02 FE 00 87 FA 02 00 FF 00 FF 00 FF 00 00 FF 00 FF 00 00 FF 00 FE 00 FF 00 FE 00 FC 00 FF 00 FE 00 FE 00 FE 00 FF 00 FF 00 FE 00 FF 00 FE 00 FE 00 FE 00 FC 00 FE 00 FE 00 FF 00 FF 00 FE 00 F8 00 FE 00 FE 00 FE 00 FE 00 FF 00 FE 00 FC 00 FE 00 FF 00 FF 00 FF 00 FF 00 FE 00 FF 00 FF 00 FF 00 FE 00 FE 00 FE 00 FE 00 FE 00 FF 00 FF 00 FF 00 
Raw Response and len 120: FF 00 FC 00 FF 00 FE 00 FF 00 FE 00 FC 00 FE 00 FE 00 FF 00 FF 00 FF 00 FE 00 FF 00 FE 00 FE 00 FF 00 FF 00 FE 00 FE 00 FE 00 FE 00 FF 00 FE 00 FF 00 FF 00 FE 00 FF 00 F8 00 FE 00 FF 00 FF 00 FF 00 FE 00 FE 00 FF 00 FC 00 FF 00 FF 00 FF 00 FE 00 FF 00 00 FF 00 FF 00 FF 00 00 FE 00 FE 00 00 FF 00 00 00 00 00 FE 00 FE 00 00 FF 00 FE 00 00 00 00 00 00 00 00 00 
-->Received Button/Knob 0 state : 134
Decrypted Response: F6 04 F7 02 FE 07 F5 02 FF 00 86 FA FF 00 FE 00 FE 00 FF 00 FF 00 FF 00 FE 00 FF 00 FE 00 FE 00 FF 00 FF 00 FE 00 FE 00 FE 00 FE 00 FF 00 FE 00 FF 00 FF 00 FE 00 FF 00 F8 00 FE 00 FF 00 FF 00 FF 00 FE 00 FE 00 FF 00 FC 00 FF 00 FF 00 FF 00 FE 00 FF 00 00 FF 00 FF 00 FF 00 00 FE 00 FE 00 00 FF 00 00 00 00 00 FE 00 FE 00 00 FF 00 FE 00 00 00 00 00 00 00 00 00 
Raw Response and len 120: 00 00 00 00 00 00 00 00 00 00 00 00 00 00 00 00 00 00 00 00 00 00 00 00 00 00 00 00 00 00 00 00 00 00 00 00 00 00 00 00 00 00 00 00 00 00 00 00 00 00 00 00 00 00 00 00 00 00 00 00 00 00 00 00 00 00 00 00 00 00 00 00 00 00 00 00 00 00 00 00 00 00 00 00 00 00 00 00 00 00 00 00 00 00 00 00 00 00 00 00 00 00 00 00 00 00 00 00 00 00 00 00 00 00 00 00 00 00 00 00 
-->Received Button/Knob 0 state : 0
Decrypted Response: F7 04 FB 02 FF 07 F7 02 00 00 00 FA 03 00 00 00 00 00 00 00 00 00 00 00 00 00 00 00 00 00 00 00 00 00 00 00 00 00 00 00 00 00 00 00 00 00 00 00 00 00 00 00 00 00 00 00 00 00 00 00 00 00 00 00 00 00 00 00 00 00 00 00 00 00 00 00 00 00 00 00 00 00 00 00 00 00 00 00 00 00 00 00 00 00 00 00 00 00 00 00 00 00 00 00 00 00 00 00 00 00 00 00 00 00 00 00 00 00 00 00 
Raw Response and len 120: 00 00 00 00 00 00 00 00 00 00 00 00 00 00 00 00 00 00 00 00 00 00 00 00 00 00 00 00 00 00 00 00 00 00 00 00 00 00 00 00 00 00 00 00 00 00 00 00 00 00 00 00 00 00 00 00 00 00 00 00 00 00 00 00 00 00 00 00 00 00 00 00 00 00 00 00 00 00 00 00 00 00 00 00 00 00 00 00 00 00 00 00 00 00 00 00 00 00 00 00 00 00 00 00 00 00 00 00 00 00 00 00 00 00 00 00 00 00 00 00 
-->Received Button/Knob 0 state : 0
Decrypted Response: F7 04 FB 02 FF 07 F7 02 00 00 00 FA 03 00 00 00 00 00 00 00 00 00 00 00 00 00 00 00 00 00 00 00 00 00 00 00 00 00 00 00 00 00 00 00 00 00 00 00 00 00 00 00 00 00 00 00 00 00 00 00 00 00 00 00 00 00 00 00 00 00 00 00 00 00 00 00 00 00 00 00 00 00 00 00 00 00 00 00 00 00 00 00 00 00 00 00 00 00 00 00 00 00 00 00 00 00 00 00 00 00 00 00 00 00 00 00 00 00 00 00 
Raw Response and len 120: 00 00 00 00 00 00 00 00 00 00 00 00 00 00 00 00 00 00 00 00 00 00 00 00 00 00 00 00 00 00 00 00 00 00 00 00 00 00 00 00 00 00 00 00 00 00 00 00 00 00 00 00 00 00 00 00 00 00 00 00 00 00 00 00 00 00 00 00 00 00 00 00 00 00 00 00 00 00 00 00 00 00 00 00 00 00 00 00 00 00 00 00 00 00 00 00 00 00 00 00 00 00 00 00 00 00 00 00 00 00 00 00 00 00 00 00 00 00 00 00 
-->Received Button/Knob 0 state : 0
Decrypted Response: F7 04 FB 02 FF 07 F7 02 00 00 00 FA 03 00 00 00 00 00 00 00 00 00 00 00 00 00 00 00 00 00 00 00 00 00 00 00 00 00 00 00 00 00 00 00 00 00 00 00 00 00 00 00 00 00 00 00 00 00 00 00 00 00 00 00 00 00 00 00 00 00 00 00 00 00 00 00 00 00 00 00 00 00 00 00 00 00 00 00 00 00 00 00 00 00 00 00 00 00 00 00 00 00 00 00 00 00 00 00 00 00 00 00 00 00 00 00 00 00 00 00 
Raw Response and len 120: 00 00 00 00 00 00 00 00 00 00 00 00 00 00 00 00 00 00 00 00 00 00 00 00 00 00 00 00 00 00 00 00 00 00 00 00 00 00 00 00 00 00 00 00 00 00 00 00 00 00 00 00 00 00 00 00 00 00 00 00 00 00 00 00 00 00 00 00 00 00 00 00 00 00 00 00 00 00 00 00 00 00 00 00 00 00 00 00 00 00 00 00 00 00 00 00 00 00 00 00 00 00 00 00 00 00 00 00 00 00 00 00 00 00 00 00 00 00 00 00 
-->Received Button/Knob 0 state : 0
Decrypted Response: F7 04 FB 02 FF 07 F7 02 00 00 00 FA 03 00 00 00 00 00 00 00 00 00 00 00 00 00 00 00 00 00 00 00 00 00 00 00 00 00 00 00 00 00 00 00 00 00 00 00 00 00 00 00 00 00 00 00 00 00 00 00 00 00 00 00 00 00 00 00 00 00 00 00 00 00 00 00 00 00 00 00 00 00 00 00 00 00 00 00 00 00 00 00 00 00 00 00 00 00 00 00 00 00 00 00 00 00 00 00 00 00 00 00 00 00 00 00 00 00 00 00 
Raw Response and len 120: 00 00 00 00 00 00 00 00 00 00 00 00 00 00 00 00 00 00 00 00 00 00 00 00 00 00 00 00 00 00 00 00 00 00 00 00 00 00 00 00 00 00 00 00 00 00 00 00 00 00 00 00 00 00 00 00 00 00 00 00 00 00 00 00 00 00 00 00 00 00 00 00 00 00 00 00 00 00 00 00 00 00 00 00 00 00 00 00 00 00 00 00 00 00 00 00 00 00 00 00 00 00 00 00 00 00 00 00 00 00 00 00 00 00 00 00 00 00 00 00 
-->Received Button/Knob 0 state : 0
Decrypted Response: F7 04 FB 02 FF 07 F7 02 00 00 00 FA 03 00 00 00 00 00 00 00 00 00 00 00 00 00 00 00 00 00 00 00 00 00 00 00 00 00 00 00 00 00 00 00 00 00 00 00 00 00 00 00 00 00 00 00 00 00 00 00 00 00 00 00 00 00 00 00 00 00 00 00 00 00 00 00 00 00 00 00 00 00 00 00 00 00 00 00 00 00 00 00 00 00 00 00 00 00 00 00 00 00 00 00 00 00 00 00 00 00 00 00 00 00 00 00 00 00 00 00 
Raw Response and len 120: 00 00 00 00 00 00 00 00 00 00 00 00 00 00 00 00 00 00 00 00 00 00 00 00 00 00 00 00 00 00 00 00 00 00 00 00 00 00 00 00 00 00 00 00 00 00 00 00 00 00 00 00 00 00 00 00 00 00 00 00 00 00 00 00 00 00 00 00 00 00 00 00 00 00 00 00 00 00 00 00 00 00 00 00 00 00 00 00 00 00 00 00 00 00 00 00 00 00 00 00 00 00 00 00 00 00 00 00 00 00 00 00 00 00 00 00 00 00 00 00 
-->Received Button/Knob 0 state : 0
Decrypted Response: F7 04 FB 02 FF 07 F7 02 00 00 00 FA 03 00 00 00 00 00 00 00 00 00 00 00 00 00 00 00 00 00 00 00 00 00 00 00 00 00 00 00 00 00 00 00 00 00 00 00 00 00 00 00 00 00 00 00 00 00 00 00 00 00 00 00 00 00 00 00 00 00 00 00 00 00 00 00 00 00 00 00 00 00 00 00 00 00 00 00 00 00 00 00 00 00 00 00 00 00 00 00 00 00 00 00 00 00 00 00 00 00 00 00 00 00 00 00 00 00 00 00 
Raw Response and len 120: 00 00 00 00 00 00 00 00 00 00 00 00 00 00 00 00 00 00 00 00 00 00 00 00 00 00 00 00 00 00 00 00 00 00 00 00 00 00 00 00 00 00 00 00 00 00 00 00 00 00 00 00 00 00 00 00 00 00 00 00 00 00 00 00 00 00 00 00 00 00 00 00 00 00 00 00 00 00 00 00 00 00 00 00 00 00 00 00 00 00 00 00 00 00 00 00 00 00 00 00 00 00 00 00 00 00 00 00 00 00 00 00 00 00 00 00 00 00 00 00 
-->Received Button/Knob 0 state : 0
Decrypted Response: F7 04 FB 02 FF 07 F7 02 00 00 00 FA 03 00 00 00 00 00 00 00 00 00 00 00 00 00 00 00 00 00 00 00 00 00 00 00 00 00 00 00 00 00 00 00 00 00 00 00 00 00 00 00 00 00 00 00 00 00 00 00 00 00 00 00 00 00 00 00 00 00 00 00 00 00 00 00 00 00 00 00 00 00 00 00 00 00 00 00 00 00 00 00 00 00 00 00 00 00 00 00 00 00 00 00 00 00 00 00 00 00 00 00 00 00 00 00 00 00 00 00 
Raw Response and len 120: 00 00 00 00 00 00 00 00 00 00 00 00 00 00 00 00 00 00 00 00 00 00 00 00 00 00 00 00 00 00 00 00 00 00 00 00 00 00 00 00 00 00 00 00 00 00 00 00 00 00 00 00 00 00 00 00 00 00 00 00 00 00 00 00 00 00 00 00 00 00 00 00 00 00 00 00 00 00 00 00 00 00 00 00 00 00 00 00 00 00 00 00 00 00 00 00 00 00 00 00 00 00 00 00 00 00 00 00 00 00 00 00 00 00 00 00 00 00 00 00 
-->Received Button/Knob 0 state : 0
Decrypted Response: F7 04 FB 02 FF 07 F7 02 00 00 00 FA 03 00 00 00 00 00 00 00 00 00 00 00 00 00 00 00 00 00 00 00 00 00 00 00 00 00 00 00 00 00 00 00 00 00 00 00 00 00 00 00 00 00 00 00 00 00 00 00 00 00 00 00 00 00 00 00 00 00 00 00 00 00 00 00 00 00 00 00 00 00 00 00 00 00 00 00 00 00 00 00 00 00 00 00 00 00 00 00 00 00 00 00 00 00 00 00 00 00 00 00 00 00 00 00 00 00 00 00 
Raw Response and len 120: 00 00 00 00 00 00 00 00 00 00 00 00 00 00 00 00 00 00 00 00 00 00 00 00 00 00 00 00 00 00 00 00 00 00 00 00 00 00 00 00 00 00 00 00 00 00 00 00 00 00 00 00 00 00 00 00 00 00 00 00 00 00 00 00 00 00 00 00 00 00 00 00 00 00 00 00 00 00 00 00 00 00 00 00 00 00 00 00 00 00 00 00 00 00 00 00 00 00 00 00 00 00 00 00 00 00 00 00 00 00 00 00 00 00 00 00 00 00 00 00 
-->Received Button/Knob 0 state : 0
Decrypted Response: F7 04 FB 02 FF 07 F7 02 00 00 00 FA 03 00 00 00 00 00 00 00 00 00 00 00 00 00 00 00 00 00 00 00 00 00 00 00 00 00 00 00 00 00 00 00 00 00 00 00 00 00 00 00 00 00 00 00 00 00 00 00 00 00 00 00 00 00 00 00 00 00 00 00 00 00 00 00 00 00 00 00 00 00 00 00 00 00 00 00 00 00 00 00 00 00 00 00 00 00 00 00 00 00 00 00 00 00 00 00 00 00 00 00 00 00 00 00 00 00 00 00 
Raw Response and len 120: 00 00 00 00 00 00 00 00 00 00 00 00 00 00 00 00 00 00 00 00 00 00 00 00 00 00 00 00 00 00 00 00 00 00 00 00 00 00 00 00 00 00 00 00 00 00 00 00 00 00 00 00 FE 00 FF 00 FF 00 FE 00 FF 00 00 00 FF 00 FF 00 FF 00 FC 00 FF 00 FE 00 FE 00 FF 00 00 00 FF 00 00 FF 00 FF 00 FE 00 FE 00 00 FE 00 E8 00 E0 00 00 00 00 C0 00 E0 00 00 E0 00 00 C0 00 00 FC 00 20 00 C0 00 
-->Received Button/Knob 0 state : 0
Decrypted Response: F7 04 FB 02 FF 07 F7 02 00 00 00 FA 03 00 00 00 00 00 00 00 00 00 00 00 00 00 00 00 00 00 00 00 00 00 00 00 00 00 00 00 00 00 00 00 00 00 00 00 00 00 00 00 FE 00 FF 00 FF 00 FE 00 FF 00 00 00 FF 00 FF 00 FF 00 FC 00 FF 00 FE 00 FE 00 FF 00 00 00 FF 00 00 FF 00 FF 00 FE 00 FE 00 00 FE 00 E8 00 E0 00 00 00 00 C0 00 E0 00 00 E0 00 00 C0 00 00 FC 00 20 00 C0 00 
Raw Response and len 85: FC 00 A0 00 00 C0 00 00 00 C0 00 00 00 FC 00 C4 00 00 00 FC 00 E0 00 00 F8 00 00 00 00 00 00 FE 00 00 FC 00 00 00 F4 00 00 D0 00 00 00 E0 00 00 00 F0 00 00 F0 00 00 00 E0 00 00 E0 00 00 00 00 00 00 C0 00 00 C0 00 C0 00 F8 00 00 00 00 00 00 E0 00 F8 00 FF 
-->Received Button/Knob 192 state : 0
Decrypted Response: F3 04 9B 02 FF C7 F7 02 00 C0 00 FA 03 FC 00 C4 00 00 00 FC 00 E0 00 00 F8 00 00 00 00 00 00 FE 00 00 FC 00 00 00 F4 00 00 D0 00 00 00 E0 00 00 00 F0 00 00 F0 00 00 00 E0 00 00 E0 00 00 00 00 00 00 C0 00 00 C0 00 C0 00 F8 00 00 00 00 00 00 E0 00 F8 00 FF 
Raw Response and len 1: 00 
Decrypted Response: 00 
Raw Response and len 120: 00 FE 00 FF 00 FE 00 00 00 FF 00 F8 00 F1 00 E0 00 00 00 FE 00 E8 00 F0 00 00 A0 00 F0 00 00 FF 00 E0 00 00 90 00 00 E0 00 00 E0 00 E0 00 F0 00 F8 00 00 E0 00 E0 00 F8 00 FA 00 E0 00 F0 00 C0 00 F0 00 00 00 80 00 00 E0 00 80 00 80 00 00 00 C0 00 C0 00 00 00 C0 00 00 C0 00 00 00 F0 00 F0 00 00 E0 00 00 00 00 F0 00 00 C0 00 E0 00 00 E0 00 00 00 E0 00 80 00 00 
-->Received Button/Knob 255 state : 0
Decrypted Response: F7 02 FB 01 FF 05 F7 02 00 FF 00 F2 03 F1 00 E0 00 00 00 FE 00 E8 00 F0 00 00 A0 00 F0 00 00 FF 00 E0 00 00 90 00 00 E0 00 00 E0 00 E0 00 F0 00 F8 00 00 E0 00 E0 00 F8 00 FA 00 E0 00 F0 00 C0 00 F0 00 00 00 80 00 00 E0 00 80 00 80 00 00 00 C0 00 C0 00 00 00 C0 00 00 C0 00 00 00 F0 00 F0 00 00 E0 00 00 00 00 F0 00 00 C0 00 E0 00 00 E0 00 00 00 E0 00 80 00 00 
Raw Response and len 120: 00 00 00 00 80 00 00 FC 00 E0 00 00 00 E0 00 00 40 00 00 C0 00 00 00 00 00 E0 00 00 00 FC 00 20 00 00 C0 FF 00 C0 00 00 20 00 00 10 FF 00 00 E0 00 00 C4 FF 00 00 E0 00 00 00 00 80 00 00 00 00 C0 00 00 D4 00 00 E4 00 00 FC 00 00 00 00 00 00 00 00 00 E0 00 80 FF 00 00 00 E0 00 00 A0 00 00 C0 00 E0 00 E0 00 00 04 00 00 80 00 00 00 00 00 E0 00 00 E0 00 00 00 C0 
-->Received Button/Knob 224 state : 0
Decrypted Response: F7 04 FB 02 7F 07 F7 FE 00 E0 00 FA 03 E0 00 00 40 00 00 C0 00 00 00 00 00 E0 00 00 00 FC 00 20 00 00 C0 FF 00 C0 00 00 20 00 00 10 FF 00 00 E0 00 00 C4 FF 00 00 E0 00 00 00 00 80 00 00 00 00 C0 00 00 D4 00 00 E4 00 00 FC 00 00 00 00 00 00 00 00 00 E0 00 80 FF 00 00 00 E0 00 00 A0 00 00 C0 00 E0 00 E0 00 00 04 00 00 80 00 00 00 00 00 E0 00 00 E0 00 00 00 C0 
Raw Response and len 120: 00 00 E0 00 00 00 00 00 00 00 00 00 00 E0 FF 00 00 00 E0 00 00 00 E0 00 00 00 00 00 E4 00 00 60 00 FF 00 FE 00 FF 00 FF 00 FF 00 FE 00 FF 00 FE 00 00 00 00 00 00 00 00 00 00 00 00 00 00 00 00 00 00 00 00 00 00 00 00 00 00 00 00 00 00 00 00 00 00 00 00 00 00 00 00 00 00 00 00 00 00 00 00 00 00 00 FF 00 00 00 00 00 00 00 FF 00 00 00 00 00 00 00 00 00 00 00 00 
-->Received Button/Knob 0 state : 0
Decrypted Response: F7 04 DB 02 FF 07 F7 02 00 00 00 FA 03 E0 FF 00 00 00 E0 00 00 00 E0 00 00 00 00 00 E4 00 00 60 00 FF 00 FE 00 FF 00 FF 00 FF 00 FE 00 FF 00 FE 00 00 00 00 00 00 00 00 00 00 00 00 00 00 00 00 00 00 00 00 00 00 00 00 00 00 00 00 00 00 00 00 00 00 00 00 00 00 00 00 00 00 00 00 00 00 00 00 00 00 00 FF 00 00 00 00 00 00 00 FF 00 00 00 00 00 00 00 00 00 00 00 00 
Raw Response and len 95: FF 00 FF 00 00 00 00 00 00 FF 00 00 00 00 00 00 00 FF 00 00 00 00 00 00 00 00 00 00 00 00 00 00 00 00 00 00 00 00 00 00 00 00 00 00 00 00 00 00 00 00 00 00 00 00 00 00 00 00 00 00 00 00 00 00 00 00 00 00 00 FE 00 00 FE 00 00 00 00 00 00 00 00 00 00 00 00 00 00 00 00 00 00 00 00 00 20 
-->Received Button/Knob 255 state : 0
Decrypted Response: F6 04 FA 02 FF 07 F7 02 00 FF 00 FA 03 00 00 00 00 FF 00 00 00 00 00 00 00 00 00 00 00 00 00 00 00 00 00 00 00 00 00 00 00 00 00 00 00 00 00 00 00 00 00 00 00 00 00 00 00 00 00 00 00 00 00 00 00 00 00 00 00 FE 00 00 FE 00 00 00 00 00 00 00 00 00 00 00 00 00 00 00 00 00 00 00 00 00 20 
Raw Response and len 120: 00 00 00 00 00 00 00 00 00 00 00 00 00 00 00 00 00 00 00 00 00 00 00 00 00 00 00 00 00 00 00 00 00 00 00 00 00 00 00 00 00 00 00 00 00 00 00 00 00 00 00 00 00 00 00 00 00 00 00 00 00 00 00 00 00 00 00 00 00 00 00 00 00 00 00 00 00 00 00 00 00 00 00 00 00 00 00 00 00 00 00 00 00 00 00 00 00 00 00 00 00 00 00 FE 00 00 00 00 00 00 00 00 FF 00 00 00 00 00 00 00 
-->Received Button/Knob 0 state : 0
Decrypted Response: F7 04 FB 02 FF 07 F7 02 00 00 00 FA 03 00 00 00 00 00 00 00 00 00 00 00 00 00 00 00 00 00 00 00 00 00 00 00 00 00 00 00 00 00 00 00 00 00 00 00 00 00 00 00 00 00 00 00 00 00 00 00 00 00 00 00 00 00 00 00 00 00 00 00 00 00 00 00 00 00 00 00 00 00 00 00 00 00 00 00 00 00 00 00 00 00 00 00 00 00 00 00 00 00 00 FE 00 00 00 00 00 00 00 00 FF 00 00 00 00 00 00 00 
Raw Response and len 120: 00 00 FF 00 FF 00 00 00 00 FE 00 00 FC 00 00 FE 00 00 00 FE 00 FC 00 FC 00 00 00 00 00 00 00 00 00 00 00 00 00 00 00 FE 00 00 00 00 00 FC 00 00 00 00 FC 00 00 FC 00 FC 00 00 FE 00 FE 00 FE 00 FE 00 00 00 00 00 00 FE 00 FE 00 FE 00 00 00 00 FE 00 00 FE 00 FE 00 00 00 00 FE 00 00 00 00 00 00 00 00 00 00 00 00 00 00 00 00 00 00 FF 00 00 00 00 00 00 00 00 00 00 
-->Received Button/Knob 254 state : 0
Decrypted Response: F7 04 FA 02 FE 07 F7 02 00 FE 00 FA FF 00 00 FE 00 00 00 FE 00 FC 00 FC 00 00 00 00 00 00 00 00 00 00 00 00 00 00 00 FE 00 00 00 00 00 FC 00 00 00 00 FC 00 00 FC 00 FC 00 00 FE 00 FE 00 FE 00 FE 00 00 00 00 00 00 FE 00 FE 00 FE 00 00 00 00 FE 00 00 FE 00 FE 00 00 00 00 FE 00 00 00 00 00 00 00 00 00 00 00 00 00 00 00 00 00 00 FF 00 00 00 00 00 00 00 00 00 00 
Raw Response and len 120: 00 00 00 00 00 00 00 00 00 00 00 00 00 00 00 00 00 00 00 00 00 00 00 00 00 00 00 00 00 00 00 00 00 00 00 00 00 00 00 00 00 00 00 00 00 00 00 00 00 00 00 00 00 00 00 00 00 00 00 00 00 00 00 00 00 00 00 00 00 00 00 00 00 00 00 00 00 00 00 00 00 00 00 00 00 00 00 00 00 00 00 00 00 00 00 00 00 00 00 00 00 00 00 00 00 00 00 00 00 00 00 00 00 00 00 00 00 00 00 00 
-->Received Button/Knob 0 state : 0
Decrypted Response: F7 04 FB 02 FF 07 F7 02 00 00 00 FA 03 00 00 00 00 00 00 00 00 00 00 00 00 00 00 00 00 00 00 00 00 00 00 00 00 00 00 00 00 00 00 00 00 00 00 00 00 00 00 00 00 00 00 00 00 00 00 00 00 00 00 00 00 00 00 00 00 00 00 00 00 00 00 00 00 00 00 00 00 00 00 00 00 00 00 00 00 00 00 00 00 00 00 00 00 00 00 00 00 00 00 00 00 00 00 00 00 00 00 00 00 00 00 00 00 00 00 00 
Raw Response and len 120: 00 00 00 00 00 00 00 00 00 00 00 00 00 00 00 00 00 00 00 00 00 00 00 00 00 00 00 00 00 00 00 00 00 00 00 00 00 00 00 00 00 00 00 00 00 00 00 00 00 00 00 00 00 00 00 00 00 00 00 00 00 00 00 00 00 00 00 00 00 00 00 00 00 00 00 00 00 00 00 00 00 00 00 00 00 00 00 00 00 00 00 00 00 00 00 00 00 00 00 00 00 00 00 00 00 00 00 00 00 00 00 00 00 00 00 00 00 00 00 00 
-->Received Button/Knob 0 state : 0
Decrypted Response: F7 04 FB 02 FF 07 F7 02 00 00 00 FA 03 00 00 00 00 00 00 00 00 00 00 00 00 00 00 00 00 00 00 00 00 00 00 00 00 00 00 00 00 00 00 00 00 00 00 00 00 00 00 00 00 00 00 00 00 00 00 00 00 00 00 00 00 00 00 00 00 00 00 00 00 00 00 00 00 00 00 00 00 00 00 00 00 00 00 00 00 00 00 00 00 00 00 00 00 00 00 00 00 00 00 00 00 00 00 00 00 00 00 00 00 00 00 00 00 00 00 00 
Raw Response and len 120: 00 00 00 00 00 00 00 00 00 00 00 00 00 00 00 00 00 00 00 00 00 00 00 00 00 00 00 00 00 00 00 00 00 00 00 00 00 00 00 00 00 00 00 00 00 00 00 00 00 00 00 00 00 00 00 00 00 00 00 00 00 00 00 00 00 00 00 00 00 00 00 00 00 00 00 00 00 00 00 00 00 00 00 00 00 00 00 00 00 00 00 00 00 00 00 00 00 00 00 00 00 00 00 00 00 00 00 00 00 00 00 00 00 00 00 00 00 00 00 00 
-->Received Button/Knob 0 state : 0
Decrypted Response: F7 04 FB 02 FF 07 F7 02 00 00 00 FA 03 00 00 00 00 00 00 00 00 00 00 00 00 00 00 00 00 00 00 00 00 00 00 00 00 00 00 00 00 00 00 00 00 00 00 00 00 00 00 00 00 00 00 00 00 00 00 00 00 00 00 00 00 00 00 00 00 00 00 00 00 00 00 00 00 00 00 00 00 00 00 00 00 00 00 00 00 00 00 00 00 00 00 00 00 00 00 00 00 00 00 00 00 00 00 00 00 00 00 00 00 00 00 00 00 00 00 00 
Raw Response and len 120: 00 00 00 00 00 00 00 00 00 00 00 00 00 00 00 00 00 00 00 00 00 00 00 00 00 00 00 00 00 00 00 00 00 00 00 00 00 00 00 00 00 00 00 00 00 00 00 00 00 00 00 00 00 00 8D B6 25 FD FF 8B 63 AD 12 05 41 56 0D 00 00 00 00 00 00 00 00 00 00 00 00 00 00 00 00 00 00 00 00 00 00 00 00 00 00 00 00 00 00 00 00 00 00 00 00 00 00 00 00 00 00 00 00 00 00 00 00 00 00 00 00 00 
-->Received Button/Knob 0 state : 0
Decrypted Response: F7 04 FB 02 FF 07 F7 02 00 00 00 FA 03 00 00 00 00 00 00 00 00 00 00 00 00 00 00 00 00 00 00 00 00 00 00 00 00 00 00 00 00 00 00 00 00 00 00 00 00 00 00 00 00 00 8D B6 25 FD FF 8B 63 AD 12 05 41 56 0D 00 00 00 00 00 00 00 00 00 00 00 00 00 00 00 00 00 00 00 00 00 00 00 00 00 00 00 00 00 00 00 00 00 00 00 00 00 00 00 00 00 00 00 00 00 00 00 00 00 00 00 00 00 
Raw Response and len 120: 00 00 00 00 00 00 00 00 00 00 00 00 00 00 00 00 00 00 00 00 00 00 00 00 00 00 00 00 00 00 00 00 00 00 00 00 00 00 00 00 00 00 00 00 00 00 00 00 00 00 00 FE 00 00 FF 00 FF 00 00 00 00 FE 00 FF 00 FF 00 FC 00 FE 00 FE 00 FF 00 FF 00 FF 00 FF 00 FE 00 FF 00 FC 00 FE 00 FE 00 FE 00 FE 00 FE 00 FE 00 FF 00 FF 00 FF 00 FE 00 FC 00 FE 00 FF 00 FF 00 FF 00 FE 00 FF 
-->Received Button/Knob 0 state : 0
Decrypted Response: F7 04 FB 02 FF 07 F7 02 00 00 00 FA 03 00 00 00 00 00 00 00 00 00 00 00 00 00 00 00 00 00 00 00 00 00 00 00 00 00 00 00 00 00 00 00 00 00 00 00 00 00 00 FE 00 00 FF 00 FF 00 00 00 00 FE 00 FF 00 FF 00 FC 00 FE 00 FE 00 FF 00 FF 00 FF 00 FF 00 FE 00 FF 00 FC 00 FE 00 FE 00 FE 00 FE 00 FE 00 FE 00 FF 00 FF 00 FF 00 FE 00 FC 00 FE 00 FF 00 FF 00 FF 00 FE 00 FF 
Raw Response and len 120: 00 FF 00 FF 00 FF 00 FE 00 FC 00 FC 00 FE 00 FC 00 FC 00 FE 00 FE 00 FE 00 FE 00 FF 00 FF 00 FF 00 FC 00 FF 00 FF 00 FF 00 FF 00 FE 00 FE 00 FF 00 FC 00 FC 00 FE 00 FF 00 FF 00 FF 00 FE 00 FE 00 F8 00 FE 00 FF 00 FF 00 FE 00 FE 00 FF 00 FE 00 FE 00 FE 00 FC 00 FF 00 FF 00 FE 00 FE 00 FE 00 FE 00 FF 00 FE 00 FE 00 FE 00 FE 00 FF 00 FF 00 FE 00 FF 00 FE 00 FE 
-->Received Button/Knob 252 state : 0
Decrypted Response: F7 03 FB 01 FF 06 F7 00 00 FC 00 F6 03 FE 00 FC 00 FC 00 FE 00 FE 00 FE 00 FE 00 FF 00 FF 00 FF 00 FC 00 FF 00 FF 00 FF 00 FF 00 FE 00 FE 00 FF 00 FC 00 FC 00 FE 00 FF 00 FF 00 FF 00 FE 00 FE 00 F8 00 FE 00 FF 00 FF 00 FE 00 FE 00 FF 00 FE 00 FE 00 FE 00 FC 00 FF 00 FF 00 FE 00 FE 00 FE 00 FE 00 FF 00 FE 00 FE 00 FE 00 FE 00 FF 00 FF 00 FE 00 FF 00 FE 00 FE 
Raw Response and len 120: 00 FE 00 FF 00 FF 00 FE 00 FE 00 FE 00 FE 00 FE 00 FE 00 FE 00 FF 00 FF 00 FC 00 FE 00 FE 00 FE 00 FE 00 FC 00 FE 00 FF 00 FC 00 FE 00 FE 00 FC 00 FE 00 FE 00 FE 00 FF 00 FF 00 FF 00 FC 00 FE 00 FF 00 FC 00 FF 00 FE 00 FC 00 FC 00 FE 00 FE 00 FE 00 FC 00 FE 00 FF 00 FE 00 FE 00 FE 00 FE 00 FE 00 FC 00 FE 00 FF 00 00 FE 00 FC 00 FF 00 FE 00 FE 00 FF 00 FE 00 
-->Received Button/Knob 254 state : 0
Decrypted Response: F7 02 FB 01 FF 06 F7 00 00 FE 00 F8 03 FE 00 FE 00 FE 00 FE 00 FF 00 FF 00 FC 00 FE 00 FE 00 FE 00 FE 00 FC 00 FE 00 FF 00 FC 00 FE 00 FE 00 FC 00 FE 00 FE 00 FE 00 FF 00 FF 00 FF 00 FC 00 FE 00 FF 00 FC 00 FF 00 FE 00 FC 00 FC 00 FE 00 FE 00 FE 00 FC 00 FE 00 FF 00 FE 00 FE 00 FE 00 FE 00 FE 00 FC 00 FE 00 FF 00 00 FE 00 FC 00 FF 00 FE 00 FE 00 FF 00 FE 00 
Raw Response and len 120: FE 00 FE 00 FE 00 FF 00 FE 00 FE 00 FE 00 FF 00 FE 00 FE 00 FE 00 FF 00 00 FF 00 FF 00 FF 00 FF 00 FE 00 FF 00 FE 00 FF 00 FE 00 FF 00 FF 00 FE 00 FF 00 FF 00 FF 00 FE 00 FF 00 FF 00 FF 00 FF 00 FF 00 FF 00 FF 00 FF 00 00 FF 00 FF 00 FF 00 00 FF 00 FF 00 FE 00 FF 00 FE 00 FE 00 FE 00 FC 00 FF 00 FE 00 FF 00 FF 00 FF 00 FC 00 FC 00 FE 00 FF 00 FC 00 FF 00 FC 
-->Received Button/Knob 0 state : 134
Decrypted Response: F5 04 F9 02 FD 07 F6 02 FE 00 86 FA 01 00 FF 00 FE 00 FE 00 FE 00 FF 00 00 FF 00 FF 00 FF 00 FF 00 FE 00 FF 00 FE 00 FF 00 FE 00 FF 00 FF 00 FE 00 FF 00 FF 00 FF 00 FE 00 FF 00 FF 00 FF 00 FF 00 FF 00 FF 00 FF 00 FF 00 00 FF 00 FF 00 FF 00 00 FF 00 FF 00 FE 00 FF 00 FE 00 FE 00 FE 00 FC 00 FF 00 FE 00 FF 00 FF 00 FF 00 FC 00 FC 00 FE 00 FF 00 FC 00 FF 00 FC 
Raw Response and len 120: 00 FC 00 FF 00 FC 00 FD 00 FC 00 FE 00 FE 00 FF 00 F8 00 FF 00 FE 00 FC 00 FE 00 FE 00 FE 00 FF 00 FE 00 00 FE 00 FE 00 FE 00 F8 00 FF 00 FE 00 FE 00 00 FE 00 FE 00 FE 00 FE 00 FF 00 FF 00 FF 00 FC 00 FF 00 FF 00 FE 00 FE 00 FF 00 FF 00 FE 00 FC 00 FF 00 FF 00 FF 00 FE 00 FE 00 FC 00 FF 00 FC 00 FC 00 FE 00 FE 00 FE 00 FF 00 FE 00 FE 00 FC 00 FC 00 FE 00 FF 
-->Received Button/Knob 252 state : 0
Decrypted Response: F7 00 FB 01 FF 03 F7 FF 00 FC 00 F8 03 FE 00 FF 00 F8 00 FF 00 FE 00 FC 00 FE 00 FE 00 FE 00 FF 00 FE 00 00 FE 00 FE 00 FE 00 F8 00 FF 00 FE 00 FE 00 00 FE 00 FE 00 FE 00 FE 00 FF 00 FF 00 FF 00 FC 00 FF 00 FF 00 FE 00 FE 00 FF 00 FF 00 FE 00 FC 00 FF 00 FF 00 FF 00 FE 00 FE 00 FC 00 FF 00 FC 00 FC 00 FE 00 FE 00 FE 00 FF 00 FE 00 FE 00 FC 00 FC 00 FE 00 FF 
Raw Response and len 120: 00 F8 00 FC 00 FC 00 F8 00 FE 00 F8 00 FC 00 FD 00 FC 00 FC 00 FC 00 FE 00 FC 00 FE 00 FE 00 FE 00 FC 00 FE 00 FC 00 FF 00 FE 00 FF 00 FC 00 FF 00 FC 00 F8 00 FE 00 FC 00 FC 00 FE 00 FC 00 FE 00 FF 00 FF 00 FC 00 FE 00 FE 00 F8 00 FF 00 FE 00 FF 00 FE 00 FE 00 FE 00 FF 00 FE 00 FE 00 F8 00 FC 00 FF 00 FE 00 FC 00 FF 00 FE 00 FE 00 F8 00 FC 00 FC 00 FF 00 F8 
-->Received Button/Knob 254 state : 0
Decrypted Response: F7 FC FB FE FF 03 F7 FA 00 FE 00 F2 03 FC 00 FD 00 FC 00 FC 00 FC 00 FE 00 FC 00 FE 00 FE 00 FE 00 FC 00 FE 00 FC 00 FF 00 FE 00 FF 00 FC 00 FF 00 FC 00 F8 00 FE 00 FC 00 FC 00 FE 00 FC 00 FE 00 FF 00 FF 00 FC 00 FE 00 FE 00 F8 00 FF 00 FE 00 FF 00 FE 00 FE 00 FE 00 FF 00 FE 00 FE 00 F8 00 FC 00 FF 00 FE 00 FC 00 FF 00 FE 00 FE 00 F8 00 FC 00 FC 00 FF 00 F8 
Raw Response and len 120: 00 FD 00 FF 00 FC 00 FC 00 F8 00 FF 00 FE 00 FE 00 FC 00 FF 00 FE 00 FF 00 FF 00 FC 00 FE 00 FF 00 FF 00 FF 00 FF 00 FF 00 FF 00 FF 00 FF 00 00 00 00 FF 00 00 FF 00 00 FF 00 FC 00 FF 00 00 FF 00 FE 00 00 FE 00 FE 00 FE 00 FF 00 FF 00 00 00 FE 00 FF 00 FE 00 FF 00 FE 00 00 00 00 FF 00 FE 00 FE 00 00 00 FE 00 FF 00 FF 00 00 00 FE 00 00 FE 00 FE 00 FF 00 FF 00 
-->Received Button/Knob 248 state : 0
Decrypted Response: F7 01 FB 01 FF 03 F7 FE 00 F8 00 F9 03 FE 00 FE 00 FC 00 FF 00 FE 00 FF 00 FF 00 FC 00 FE 00 FF 00 FF 00 FF 00 FF 00 FF 00 FF 00 FF 00 FF 00 00 00 00 FF 00 00 FF 00 00 FF 00 FC 00 FF 00 00 FF 00 FE 00 00 FE 00 FE 00 FE 00 FF 00 FF 00 00 00 FE 00 FF 00 FE 00 FF 00 FE 00 00 00 00 FF 00 FE 00 FE 00 00 00 FE 00 FF 00 FF 00 00 00 FE 00 00 FE 00 FE 00 FF 00 FF 00 
Raw Response and len 120: 00 FF 00 FE 00 FF 00 00 FF 00 00 FE 00 FE 00 00 FE 00 00 FE 00 00 FF 00 FF 00 FE 00 FF 00 FE 00 FE 00 00 FF 00 FE 00 FE 00 FE 00 FE 00 FE 00 FE 00 FF 00 FF 00 FF 00 FF 00 FE 00 FE 00 FE 00 FE 00 FF 00 FE 00 FF 00 FF 00 FE 00 FF 00 FF 00 00 FF 00 FF 00 FF 00 00 FE 00 00 FF 00 FF 00 FE 00 FF 00 FF 00 00 FF 00 FF 00 FE 00 FE 00 FE 00 00 FE 00 FF 00 00 FF 00 00 
-->Received Button/Knob 0 state : 0
Decrypted Response: F7 03 FB 00 FF 06 F7 02 FF 00 00 F8 03 FE 00 00 FE 00 00 FE 00 00 FF 00 FF 00 FE 00 FF 00 FE 00 FE 00 00 FF 00 FE 00 FE 00 FE 00 FE 00 FE 00 FE 00 FF 00 FF 00 FF 00 FF 00 FE 00 FE 00 FE 00 FE 00 FF 00 FE 00 FF 00 FF 00 FE 00 FF 00 FF 00 00 FF 00 FF 00 FF 00 00 FE 00 00 FF 00 FF 00 FE 00 FF 00 FF 00 00 FF 00 FF 00 FE 00 FE 00 FE 00 00 FE 00 FF 00 00 FF 00 00 
Raw Response and len 120: FF 00 FF 00 FF 00 FF 00 FF 00 FF 00 FF 00 FF 00 FF 00 FF 00 00 FF 00 FF 00 FF 00 FF 00 FF 00 FF 00 FF 00 FF 00 FF 00 FF 00 FF 00 FE 00 FF 00 FF 00 FF 00 FF 00 FF 00 FF 00 FF 00 FF 00 FF 00 FE 00 FF 00 FF 00 FF 00 FF 00 FE 00 FE 00 FF 00 FE 00 FF 00 FF 00 FE 00 FF 00 FE 00 FF 00 00 FF 00 00 FF 00 FE 00 FF 00 FF 00 FF 00 FF 00 FF 00 FF 00 00 FF 00 8D B6 25 FD 
-->Received Button/Knob 0 state : 135
Decrypted Response: F6 04 FA 02 FE 07 F6 02 FF 00 87 FA 02 00 FF 00 FF 00 FF 00 00 FF 00 FF 00 FF 00 FF 00 FF 00 FF 00 FF 00 FF 00 FF 00 FF 00 FF 00 FE 00 FF 00 FF 00 FF 00 FF 00 FF 00 FF 00 FF 00 FF 00 FF 00 FE 00 FF 00 FF 00 FF 00 FF 00 FE 00 FE 00 FF 00 FE 00 FF 00 FF 00 FE 00 FF 00 FE 00 FF 00 00 FF 00 00 FF 00 FE 00 FF 00 FF 00 FF 00 FF 00 FF 00 FF 00 00 FF 00 8D B6 25 FD 
Raw Response and len 34: FF 8B 63 AD 0C 0D 3A 56 0D 00 FF 00 FF 00 FF 00 FF 00 00 FF 00 FF 00 FF 00 FF 00 FF 00 FF 00 FF 00 FF 
-->Received Button/Knob 0 state : 135
Decrypted Response: F6 8F 5E AF 0B 14 31 58 02 00 87 FA 02 00 FF 00 FF 00 00 FF 00 FF 00 FF 00 FF 00 FF 00 FF 00 FF 00 FF 
Raw Response and len 120: 00 FF 00 FF 00 00 FF 00 FF 00 FF 00 FF 00 FF 00 00 FF 00 FF 00 FF 00 FF 00 FF 00 FF 00 FF 00 FF 00 FC 00 00 FF 00 FF 00 FF 00 00 00 00 FF 00 00 FF 00 FF 00 FF 00 FF 00 00 FF 00 FF 00 FF 00 FF 00 FF 00 FF 00 FF 00 FF 00 FF 00 FF 00 FF 00 FF 00 FF 00 FF 00 FF 00 FF 00 FF 00 FF 00 FF 00 FF 00 FF 00 FF 00 FE 00 FF 00 FF 00 00 00 FF 00 FF 00 FE 00 00 00 00 FF 00 
-->Received Button/Knob 0 state : 135
Decrypted Response: F7 03 FB 01 FF 07 F6 02 FF 00 87 FA 02 00 FF 00 00 FF 00 FF 00 FF 00 FF 00 FF 00 FF 00 FF 00 FF 00 FC 00 00 FF 00 FF 00 FF 00 00 00 00 FF 00 00 FF 00 FF 00 FF 00 FF 00 00 FF 00 FF 00 FF 00 FF 00 FF 00 FF 00 FF 00 FF 00 FF 00 FF 00 FF 00 FF 00 FF 00 FF 00 FF 00 FF 00 FF 00 FF 00 FF 00 FF 00 FF 00 FF 00 FE 00 FF 00 FF 00 00 00 FF 00 FF 00 FE 00 00 00 00 FF 00 
Raw Response and len 36: 00 FF 00 FE 00 FF 00 FF 00 00 00 FF 00 FF 00 FF 00 FF 00 FF 00 00 FF 00 00 FF 00 FF 00 FF 00 FF 00 FF 00 FF 
-->Received Button/Knob 0 state : 0
Decrypted Response: F7 03 FB 00 FF 06 F7 01 00 00 00 F9 03 FF 00 FF 00 FF 00 FF 00 00 FF 00 00 FF 00 FF 00 FF 00 FF 00 FF 00 FF 
Raw Response and len 2: 00 FF 
Decrypted Response: 00 FF 
Raw Response and len 8: 00 FF 00 FF 00 FF 00 FF 
Decrypted Response: 00 FF 00 FF 00 FF 00 FF 
Raw Response and len 4: 00 FF 00 FF 
Decrypted Response: 00 FF 00 FF 
Raw Response and len 120: 00 FF 00 FF 00 FF 00 FF 00 FE 00 FF 00 FF 00 FF 00 FF 00 FF 00 FF 00 FF 00 FE 00 FF 00 FF 00 FF 00 FF 00 FF 00 FF 00 FE 00 FF 00 FF 00 FF 00 FC 00 FF 00 00 FF 00 FE 00 00 FF 00 FF 00 FF 00 FF 00 FF 00 FF 00 00 FF 00 FF 00 FF 00 FF 00 FF 00 FF 00 FF 00 00 00 FF 00 FF 00 FF 00 FF 00 FF 00 FF 00 FF 00 FF 00 FF 00 FE 00 FF 00 FE 00 FF 00 FF 00 00 00 FF 00 FF 00 
-->Received Button/Knob 254 state : 0
Decrypted Response: F7 03 FB 01 FF 06 F7 01 00 FE 00 F9 03 FF 00 FF 00 FF 00 FF 00 FF 00 FF 00 FE 00 FF 00 FF 00 FF 00 FF 00 FF 00 FF 00 FE 00 FF 00 FF 00 FF 00 FC 00 FF 00 00 FF 00 FE 00 00 FF 00 FF 00 FF 00 FF 00 FF 00 FF 00 00 FF 00 FF 00 FF 00 FF 00 FF 00 FF 00 FF 00 00 00 FF 00 FF 00 FF 00 FF 00 FF 00 FF 00 FF 00 FF 00 FF 00 FE 00 FF 00 FE 00 FF 00 FF 00 00 00 FF 00 FF 00 
Raw Response and len 120: FF 00 FF 00 FF 00 00 00 00 FF 00 00 FF 00 FE F0 8D B6 25 FD FF 8B 63 AD 11 03 49 56 0D 00 FF 00 00 FF 00 00 00 FF 00 FF 00 FF 00 FF 00 FF 00 FF 00 FF 00 FF 00 FF 00 00 FF 00 FF 00 FF 00 FF 00 FF 00 FF 00 FF 00 FF 00 00 FF 00 FF 00 00 FF 00 FF 00 FF 00 00 FF 00 FF 00 FF 00 FF 00 FF 00 FE 00 FF 00 FF 00 00 00 FF 00 FF 00 FF 00 00 00 FF 00 00 00 FF 00 00 FE 00 
-->Received Button/Knob 255 state : 0
Decrypted Response: F6 04 FA 02 FE 07 F7 02 00 FF 00 FA 02 00 FE F0 8D B6 25 FD FF 8B 63 AD 11 03 49 56 0D 00 FF 00 00 FF 00 00 00 FF 00 FF 00 FF 00 FF 00 FF 00 FF 00 FF 00 FF 00 FF 00 00 FF 00 FF 00 FF 00 FF 00 FF 00 FF 00 FF 00 FF 00 00 FF 00 FF 00 00 FF 00 FF 00 FF 00 00 FF 00 FF 00 FF 00 FF 00 FF 00 FE 00 FF 00 FF 00 00 00 FF 00 FF 00 FF 00 00 00 FF 00 00 00 FF 00 00 FE 00 
Raw Response and len 120: FF 00 FF 00 FF 00 FF 00 FE 00 FF 00 FF 00 FF 00 00 FF 00 FF 00 00 FE 00 FF 00 FF 00 FF 00 FF 00 00 FF 00 00 FF 00 FF 00 FE 00 FF 00 FF 00 FF 00 FF 00 FF 00 FF 00 FE 00 FF 00 FE 00 FE 00 FE 00 F8 00 00 FF 00 FE 00 FE 00 FF 00 FF 00 00 00 FE 00 00 FE 00 FE 00 FE 00 00 FF 00 FE 00 00 FE 00 FF 00 FF 00 FF 00 00 FE 00 00 FF 00 FE 00 FF 00 FE 00 FF 00 00 FF 00 00 
-->Received Button/Knob 0 state : 135
Decrypted Response: F6 04 FA 02 FE 07 F6 02 FE 00 87 FA 02 00 FF 00 00 FF 00 FF 00 00 FE 00 FF 00 FF 00 FF 00 FF 00 00 FF 00 00 FF 00 FF 00 FE 00 FF 00 FF 00 FF 00 FF 00 FF 00 FF 00 FE 00 FF 00 FE 00 FE 00 FE 00 F8 00 00 FF 00 FE 00 FE 00 FF 00 FF 00 00 00 FE 00 00 FE 00 FE 00 FE 00 00 FF 00 FE 00 00 FE 00 FF 00 FF 00 FF 00 00 FE 00 00 FF 00 FE 00 FF 00 FE 00 FF 00 00 FF 00 00 
Raw Response and len 120: FE 00 FE 00 FF 00 FF 00 FE 00 FE 00 FF 00 FE 00 FE 00 FE 00 FE 00 FE 00 FE 00 00 FE 00 FE 00 00 FF 00 FE 00 00 FE 00 FE 00 FE 00 00 00 FE 00 FE 00 FF 00 FF 00 FF 00 FE 00 00 FF 00 FF 00 00 FF 00 FF 00 FE 00 FF 00 FE 00 FE 00 FE 00 FF 00 00 00 FE 00 00 00 FE 00 FF 00 FE 00 00 FE 00 FE 00 FE 00 00 FF 00 00 00 FF 00 FE 00 FE 00 00 FF 00 FE 00 FF 00 FE 00 FF 00 
-->Received Button/Knob 0 state : 134
Decrypted Response: F5 04 F9 02 FE 07 F6 02 FE 00 86 FA 02 00 FE 00 FE 00 FE 00 FE 00 FE 00 FE 00 00 FE 00 FE 00 00 FF 00 FE 00 00 FE 00 FE 00 FE 00 00 00 FE 00 FE 00 FF 00 FF 00 FF 00 FE 00 00 FF 00 FF 00 00 FF 00 FF 00 FE 00 FF 00 FE 00 FE 00 FE 00 FF 00 00 00 FE 00 00 00 FE 00 FF 00 FE 00 00 FE 00 FE 00 FE 00 00 FF 00 00 00 FF 00 FE 00 FE 00 00 FF 00 FE 00 FF 00 FE 00 FF 00 
Raw Response and len 94: FF 00 FF 00 FE 00 FC 00 00 FF 00 FE 00 FE 00 FE 00 FF 00 00 FE 00 FE 00 FE 00 FE 00 00 8D B6 25 FD FF 8B 63 AD 0F 08 36 56 0D 00 00 FE 00 FE 00 FF 00 FE 00 00 FE 00 FF 00 FF 00 FF 00 FF 00 FE 00 FE 00 FE 00 00 FE 00 F8 00 FE 00 00 00 FE 00 FF 00 00 FF 00 FE 00 FF 00 FE 00 FF 00 FF 
-->Received Button/Knob 255 state : 0
Decrypted Response: F6 04 FA 02 FD 07 F3 02 00 FF 00 F8 03 FE 00 FE 00 FF 00 00 FE 00 FE 00 FE 00 FE 00 00 8D B6 25 FD FF 8B 63 AD 0F 08 36 56 0D 00 00 FE 00 FE 00 FF 00 FE 00 00 FE 00 FF 00 FF 00 FF 00 FF 00 FE 00 FE 00 FE 00 00 FE 00 F8 00 FE 00 00 00 FE 00 FF 00 00 FF 00 FE 00 FF 00 FE 00 FF 00 FF 
Raw Response and len 77: 00 00 FF 00 FF 00 FE 00 FF 00 FF 00 00 FE 00 FE 00 F8 00 FE 00 FE 00 FE 00 00 FE 00 FF 00 FF 00 FE 00 FE 00 FF 00 FE 00 FF 00 FF 00 FE 00 FE 00 FE 00 FF 00 FE 00 FE 00 FF 00 FE 00 FE 00 FE 00 FE 00 FE 00 FE 00 FF 00 FF 00 FF 00 FE 
-->Received Button/Knob 0 state : 135
Decrypted Response: F7 04 FA 02 FE 07 F5 02 FF 00 87 FA 03 FE 00 FE 00 F8 00 FE 00 FE 00 FE 00 00 FE 00 FF 00 FF 00 FE 00 FE 00 FF 00 FE 00 FF 00 FF 00 FE 00 FE 00 FE 00 FF 00 FE 00 FE 00 FF 00 FE 00 FE 00 FE 00 FE 00 FE 00 FE 00 FF 00 FF 00 FF 00 FE 
Raw Response and len 120: 8D B6 25 FD FF 8B 63 AD 14 0C 4D 56 0D 00 FE 00 FE 00 FE 00 00 FC 00 FF 00 FE 00 FF 00 FE 00 FF 00 00 FF 00 FE 00 FE 00 00 FF 00 FE 00 FF 00 FE 00 FE 00 FE 00 FF 00 FE 00 FE 00 00 FF 00 FF 00 FE 00 FF 00 FE 00 FE 00 FE 00 FF 00 FE 00 FF 00 FE 00 00 FF 00 FF 00 FE 00 00 00 FE 00 FF 00 FF 00 FF 00 00 FF 00 FC 00 FE 00 FE 00 00 FE 00 FE 00 FE 00 00 00 00 FE 00 
-->Received Button/Knob 1 state : 1
Decrypted Response: 84 BA 20 FF FE 92 5A AF 02 01 01 50 10 00 FE 00 FE 00 FE 00 00 FC 00 FF 00 FE 00 FF 00 FE 00 FF 00 00 FF 00 FE 00 FE 00 00 FF 00 FE 00 FF 00 FE 00 FE 00 FE 00 FF 00 FE 00 FE 00 00 FF 00 FF 00 FE 00 FF 00 FE 00 FE 00 FE 00 FF 00 FE 00 FF 00 FE 00 00 FF 00 FF 00 FE 00 00 00 FE 00 FF 00 FF 00 FF 00 00 FF 00 FC 00 FE 00 FE 00 00 FE 00 FE 00 FE 00 00 00 00 FE 00 
Raw Response and len 10: FE 00 FE 00 00 FE 00 FE 00 FE 
Decrypted Response: FE 00 FE 00 00 FE 00 FE 00 FE 
Raw Response and len 57: 00 FF 00 FE 00 FE 00 FF 00 FE 00 FF 00 FF 00 00 00 FF 00 FF 00 FF 00 FE 00 FE 00 FF 00 FE 00 FF 00 00 00 FE 00 FE 00 FF 00 FF 00 00 FE 00 FE 00 FE 00 FF 00 FF 00 FF 00 FE 
-->Received Button/Knob 254 state : 0
Decrypted Response: F7 03 FB 00 FF 05 F7 01 00 FE 00 F9 03 FF 00 00 00 FF 00 FF 00 FF 00 FE 00 FE 00 FF 00 FE 00 FF 00 00 00 FE 00 FE 00 FF 00 FF 00 00 FE 00 FE 00 FE 00 FF 00 FF 00 FF 00 FE 
Raw Response and len 11: 00 FE 00 00 FF 00 FE 00 FF 00 FE 
Decrypted Response: 00 FE 00 00 FF 00 FE 00 FF 00 FE 
Raw Response and len 7: 00 FE 00 FE 00 00 FE 
Decrypted Response: 00 FE 00 FE 00 00 FE 
Raw Response and len 4: 00 FF 00 FE 
Decrypted Response: 00 FF 00 FE 
Raw Response and len 23: 00 FF 00 00 00 00 FF 00 00 FE 00 FE 00 FE 00 FF 00 FF 00 FF 00 00 FE 
-->Received Button/Knob 254 state : 0
Decrypted Response: F7 03 FB 02 FF 07 F6 02 00 FE 00 F8 03 FE 00 FF 00 FF 00 FF 00 00 FE 
Raw Response and len 8: 00 FF 00 FF 00 FF 00 FE 
Decrypted Response: 00 FF 00 FF 00 FF 00 FE 
Raw Response and len 7: 00 00 00 00 FF 00 FE 
Decrypted Response: 00 00 00 00 FF 00 FE 
Raw Response and len 12: 00 FF 00 FF 00 FE 00 FF 00 FF 00 FE 
Decrypted Response: 00 FF 00 FF 00 FE 00 FF 00 FF 00 FE 
Raw Response and len 4: 00 FF 00 FE 
Decrypted Response: 00 FF 00 FE 
Raw Response and len 14: 00 00 FF 00 FF 00 FF 00 FF 00 FF 00 00 FF 
-->Received Button/Knob 0 state : 135
Decrypted Response: F7 04 FA 02 FE 07 F6 02 FF 00 87 FA 03 FF 
Raw Response and len 2: 00 FF 
Decrypted Response: 00 FF 
Raw Response and len 2: 00 FF 
Decrypted Response: 00 FF 
Raw Response and len 3: 00 00 FE 
Decrypted Response: 00 00 FE 
Raw Response and len 9: 00 00 00 00 FF 00 FF 00 FE 
Decrypted Response: 00 00 00 00 FF 00 FF 00 FE 
Raw Response and len 27: 00 FE 00 FE 00 FF 00 FF 00 FE 00 FF 00 FF 00 FF 00 FE 00 FF 00 FE 00 FE 00 00 FF 
-->Received Button/Knob 254 state : 0
Decrypted Response: F7 02 FB 00 FF 06 F7 01 00 FE 00 F9 03 FF 00 FF 00 FE 00 FF 00 FE 00 FE 00 00 FF 
Raw Response and len 4: 00 FC 00 FF 
Decrypted Response: 00 FC 00 FF 
Raw Response and len 2: 00 FE 
Decrypted Response: 00 FE 
Raw Response and len 2: 00 FE 
Decrypted Response: 00 FE 
Raw Response and len 8: 00 FE 00 FE 00 FE 00 FE 
Decrypted Response: 00 FE 00 FE 00 FE 00 FE 
Raw Response and len 14: 00 FE 00 FF 00 FF 00 FE 00 FF 00 FE 00 FE 
-->Received Button/Knob 255 state : 0
Decrypted Response: F7 02 FB 01 FF 06 F7 00 00 FF 00 F8 03 FE 
Raw Response and len 4: 00 FE 00 FE 
Decrypted Response: 00 FE 00 FE 
Raw Response and len 14: 00 FE 00 FF 00 FF 00 FF 00 F8 00 FE 00 FE 
-->Received Button/Knob 248 state : 0
Decrypted Response: F7 02 FB 01 FF 06 F7 01 00 F8 00 F8 03 FE 
Raw Response and len 8: 00 FF 00 FF 00 FC 00 FE 
Decrypted Response: 00 FF 00 FF 00 FC 00 FE 
Raw Response and len 120: 00 FE 00 FF 00 FE 00 F8 00 FF 00 FF 00 FC 00 FE 00 FE 00 FF 00 FF 00 FF 00 FE 00 FE 00 FC 00 FE 00 FE 00 FE 00 FF 00 FF 00 FE 00 FE 00 FF 00 FF 00 FF 00 FF 00 FE 00 FF 00 FE 00 FE 00 FE 00 FE 00 FE 00 FE 00 FE 00 FE 00 F8 00 FE 00 FE 00 FF 00 00 00 FE 00 FE 00 FF 00 FE 00 FE 00 00 FE 00 FE 00 FE 00 FE 00 FF 00 FE 00 FE 00 FE 00 FF 00 FE 00 FE 00 FE 00 FE 00 
-->Received Button/Knob 255 state : 0
Decrypted Response: F7 02 FB 01 FF 05 F7 FA 00 FF 00 F9 03 FC 00 FE 00 FE 00 FF 00 FF 00 FF 00 FE 00 FE 00 FC 00 FE 00 FE 00 FE 00 FF 00 FF 00 FE 00 FE 00 FF 00 FF 00 FF 00 FF 00 FE 00 FF 00 FE 00 FE 00 FE 00 FE 00 FE 00 FE 00 FE 00 FE 00 F8 00 FE 00 FE 00 FF 00 00 00 FE 00 FE 00 FF 00 FE 00 FE 00 00 FE 00 FE 00 FE 00 FE 00 FF 00 FE 00 FE 00 FE 00 FF 00 FE 00 FE 00 FE 00 FE 00 
Raw Response and len 65: FE 00 FE 00 FF 00 FF 00 FE 00 FE 00 FE 00 FE 00 FE 00 FE 00 FE 00 FE 00 FE 00 FE 00 FE 00 FF 00 F8 00 FE 00 FE 00 FE 00 FF 00 FF 00 FF 00 FF 00 FF 00 FF 00 FE 8D B6 25 FD FF 8B 63 AD 0E 02 49 56 
-->Received Button/Knob 0 state : 134
Decrypted Response: F5 04 F9 02 FE 07 F6 02 FE 00 86 FA 01 00 FE 00 FE 00 FE 00 FE 00 FE 00 FE 00 FE 00 FE 00 FF 00 F8 00 FE 00 FE 00 FE 00 FF 00 FF 00 FF 00 FF 00 FF 00 FF 00 FE 8D B6 25 FD FF 8B 63 AD 0E 02 49 56 
Raw Response and len 120: 00 FF 00 FF 00 FE 00 FE 00 FE 00 FF 00 FE 00 FE 00 FF 00 FE 00 FF 00 FE 00 FE 00 FF 00 FC 00 FF 00 FF 00 FF 00 FE 00 FE 00 FE 00 FE 00 FF 00 FE 00 FE 00 FF 00 FF 00 FE 00 FE 00 FC 00 FE 00 FE 00 FC 00 FF 00 FE 00 FE 00 FF 00 FE 00 FE 00 FE 00 FE 00 FF 00 FE 00 FF 00 FF 00 FE 00 FE 00 FF 00 FF 00 FF 00 FE 00 FE 00 FE 00 00 FE 00 FF 00 FE 00 FE 00 00 FE 00 FF 
-->Received Button/Knob 254 state : 0
Decrypted Response: F7 03 FB 01 FF 05 F7 00 00 FE 00 F9 03 FE 00 FE 00 FF 00 FE 00 FF 00 FE 00 FE 00 FF 00 FC 00 FF 00 FF 00 FF 00 FE 00 FE 00 FE 00 FE 00 FF 00 FE 00 FE 00 FF 00 FF 00 FE 00 FE 00 FC 00 FE 00 FE 00 FC 00 FF 00 FE 00 FE 00 FF 00 FE 00 FE 00 FE 00 FE 00 FF 00 FE 00 FF 00 FF 00 FE 00 FE 00 FF 00 FF 00 FF 00 FE 00 FE 00 FE 00 00 FE 00 FF 00 FE 00 FE 00 00 FE 00 FF 
Raw Response and len 50: 00 FF 00 FE 00 FE 00 F8 00 FE 00 FF 00 FF 00 FF 00 FF 00 FE 00 FF 00 FE 00 FE 00 FE 00 FF 00 FE 00 FE 00 FF 00 FF 00 FE 00 FE 00 FE 00 FF 00 FE 00 FE 
-->Received Button/Knob 254 state : 0
Decrypted Response: F7 03 FB 00 FF 05 F7 FA 00 FE 00 F9 03 FF 00 FF 00 FF 00 FE 00 FF 00 FE 00 FE 00 FE 00 FF 00 FE 00 FE 00 FF 00 FF 00 FE 00 FE 00 FE 00 FF 00 FE 00 FE 
Raw Response and len 120: 00 FE 00 FF 00 FF 00 FF 00 FE 00 FF 00 FE 00 FE 00 FE 00 FF 00 FF 00 FE 00 FE 00 00 FE 00 FF 00 FF 00 FE 00 FE 00 FE 00 00 FF 00 FE 00 FF 00 FF 00 FE 00 00 FE 00 00 00 FE 00 FE 00 FE 00 FE 00 FE 00 FC 00 00 FE 00 FF 00 FE 00 FE 00 FE 00 FE 00 FE 00 FE 00 FE 00 FE 00 FE 00 F8 00 FE 00 00 FE 00 FF 00 00 FE 00 00 FE 00 FE 00 FE 00 FE 00 FE 00 FE 00 FE 00 FF 00 
-->Received Button/Knob 254 state : 0
Decrypted Response: F7 02 FB 01 FF 06 F7 01 00 FE 00 F9 03 FE 00 FE 00 FE 00 FF 00 FF 00 FE 00 FE 00 00 FE 00 FF 00 FF 00 FE 00 FE 00 FE 00 00 FF 00 FE 00 FF 00 FF 00 FE 00 00 FE 00 00 00 FE 00 FE 00 FE 00 FE 00 FE 00 FC 00 00 FE 00 FF 00 FE 00 FE 00 FE 00 FE 00 FE 00 FE 00 FE 00 FE 00 FE 00 F8 00 FE 00 00 FE 00 FF 00 00 FE 00 00 FE 00 FE 00 FE 00 FE 00 FE 00 FE 00 FE 00 FF 00 
Raw Response and len 120: FE 00 FE 00 FE 00 FE 00 FE 00 FE 00 FF 00 FE 00 FE 00 00 FE 00 FE 00 FE 00 FE 00 FE 00 FE 00 00 FF 00 FE 00 FE 00 00 FE 00 FE 00 FF 00 FE 00 FE 00 FF 00 FE 00 FF 00 FE 00 00 00 FE 00 FE 00 FE 00 FE 00 FC 00 FE 00 FE 00 FE 00 FE 00 00 00 FE 00 FE 00 FF 00 00 FE 00 FE 00 FE 00 FE 00 FF 00 FE 00 FF 00 FF 00 00 FE 00 00 FF 00 00 FE 00 FF 00 FE 00 00 FE 00 00 FF 
-->Received Button/Knob 0 state : 134
Decrypted Response: F5 04 F9 02 FD 07 F5 02 FE 00 86 FA 02 00 FE 00 FE 00 00 FE 00 FE 00 FE 00 FE 00 FE 00 FE 00 00 FF 00 FE 00 FE 00 00 FE 00 FE 00 FF 00 FE 00 FE 00 FF 00 FE 00 FF 00 FE 00 00 00 FE 00 FE 00 FE 00 FE 00 FC 00 FE 00 FE 00 FE 00 FE 00 00 00 FE 00 FE 00 FF 00 00 FE 00 FE 00 FE 00 FE 00 FF 00 FE 00 FF 00 FF 00 00 FE 00 00 FF 00 00 FE 00 FF 00 FE 00 00 FE 00 00 FF 
Raw Response and len 120: 00 FE 00 FE 00 FE 00 00 FF 00 00 FF 00 FE 00 FE 00 00 FF 00 00 FE 00 FF 00 FF 00 00 FE 00 FF 00 FE 00 FF 00 FE 00 FF 00 FF 00 FE 00 FE 00 FE 00 FE 00 00 FE 00 FE 00 FF 00 00 FF 00 FF 00 FE 00 FF 00 FE 00 00 00 FE 00 FF 00 FE 00 FF 00 00 00 FF 00 00 FE 00 FE 00 00 FF 00 FF 00 FE 00 FF 00 FF 00 FE 00 FE 00 FF 00 FF 00 FF 00 FE 00 00 FE 00 00 FF 00 FE 00 FE 00 
-->Received Button/Knob 0 state : 0
Decrypted Response: F7 02 FB 00 FF 05 F7 02 FF 00 00 F9 03 FE 00 FE 00 00 FF 00 00 FE 00 FF 00 FF 00 00 FE 00 FF 00 FE 00 FF 00 FE 00 FF 00 FF 00 FE 00 FE 00 FE 00 FE 00 00 FE 00 FE 00 FF 00 00 FF 00 FF 00 FE 00 FF 00 FE 00 00 00 FE 00 FF 00 FE 00 FF 00 00 00 FF 00 00 FE 00 FE 00 00 FF 00 FF 00 FE 00 FF 00 FF 00 FE 00 FE 00 FF 00 FF 00 FF 00 FE 00 00 FE 00 00 FF 00 FE 00 FE 00 
Raw Response and len 120: FE 00 00 FF 00 00 FE 00 FF 00 FF 00 FF 00 FF 00 FE 00 FE 00 FF 00 FF 00 FF 00 FF 00 FF 00 FE 00 FF 00 FE 00 00 00 FF 00 FE 00 FF 00 00 FE 00 FE 00 FF 00 00 FF 00 FF 00 00 FC 00 FC 00 FF 00 FF 00 FF 00 FF 00 FE 00 FF 00 FF 00 00 FF 00 FF 00 00 FF 00 FF 00 FE 00 FF 00 FF 00 00 FF 00 FF 00 FF 00 FF 00 FC 00 FF 00 FF 00 FF 00 FF 00 00 FF 00 FF 00 FF 00 FF 00 FF 
-->Received Button/Knob 0 state : 135
Decrypted Response: F5 04 FB 01 FF 07 F5 02 FF 00 87 FA 02 00 FF 00 FE 00 FE 00 FF 00 FF 00 FF 00 FF 00 FF 00 FE 00 FF 00 FE 00 00 00 FF 00 FE 00 FF 00 00 FE 00 FE 00 FF 00 00 FF 00 FF 00 00 FC 00 FC 00 FF 00 FF 00 FF 00 FF 00 FE 00 FF 00 FF 00 00 FF 00 FF 00 00 FF 00 FF 00 FE 00 FF 00 FF 00 00 FF 00 FF 00 FF 00 FF 00 FC 00 FF 00 FF 00 FF 00 FF 00 00 FF 00 FF 00 FF 00 FF 00 FF 
Raw Response and len 120: 00 FF 00 FF 00 FF 00 00 FF 00 FF 00 FF 00 FF 00 FF 00 FF 00 FF 00 FF 00 FF 00 FD 00 FF 00 FC 00 FF 00 00 FF 00 FF 00 FF 00 FF 00 FF 00 FF 00 FF 00 FF 00 FE 00 00 FF 00 FF 00 FE 00 FF 00 FF 00 FF 00 FF 00 FF 00 FF 00 FF 00 FF 00 FF 00 FF 00 FC 00 FF 00 FF 00 FF 00 00 FC 00 FF 00 FF 00 00 FF 00 FE 00 00 FF 00 FF 00 FF 00 FF 00 FF 00 FF 00 FF 00 FF 00 FF 00 FF 
-->Received Button/Knob 0 state : 135
Decrypted Response: F7 03 FB 01 FF 06 F7 02 FF 00 87 FA 02 00 FF 00 FF 00 FF 00 FF 00 FF 00 FF 00 FD 00 FF 00 FC 00 FF 00 00 FF 00 FF 00 FF 00 FF 00 FF 00 FF 00 FF 00 FF 00 FE 00 00 FF 00 FF 00 FE 00 FF 00 FF 00 FF 00 FF 00 FF 00 FF 00 FF 00 FF 00 FF 00 FF 00 FC 00 FF 00 FF 00 FF 00 00 FC 00 FF 00 FF 00 00 FF 00 FE 00 00 FF 00 FF 00 FF 00 FF 00 FF 00 FF 00 FF 00 FF 00 FF 00 FF 
Raw Response and len 120: 00 FE 00 FF 00 FF 00 FE 00 FF 00 FF 00 FF 00 FF 00 FF 00 FF 00 FF 00 00 FE 00 FF 00 00 FF 00 FF 00 FF 00 FF 00 FC 00 FF 00 00 00 FF 00 FF 00 FE 00 FF 00 FE 00 FE 00 FF 00 FF 00 FF 00 00 FF 00 FF 00 FF 00 00 FF 00 FF 00 FF 00 FE 00 FF 00 FF 00 FF 00 FF 00 00 FF 00 FF 00 FF 00 FF 00 FF 00 FF 00 FF 00 FF 00 FE 00 FE 00 FF 00 FF 00 FF 00 FF 00 FF 00 00 00 00 00 
-->Received Button/Knob 255 state : 0
Decrypted Response: F7 02 FB 01 FF 06 F7 00 00 FF 00 F9 03 FF 00 FF 00 FF 00 FF 00 FF 00 00 FE 00 FF 00 00 FF 00 FF 00 FF 00 FF 00 FC 00 FF 00 00 00 FF 00 FF 00 FE 00 FF 00 FE 00 FE 00 FF 00 FF 00 FF 00 00 FF 00 FF 00 FF 00 00 FF 00 FF 00 FF 00 FE 00 FF 00 FF 00 FF 00 FF 00 00 FF 00 FF 00 FF 00 FF 00 FF 00 FF 00 FF 00 FF 00 FE 00 FE 00 FF 00 FF 00 FF 00 FF 00 FF 00 00 00 00 00 
Raw Response and len 120: FF 00 FE 00 00 FF 00 FF 00 FF 00 00 FF 00 FE 00 FF 00 FF 00 FF 00 FF 00 FF 00 FF 00 00 00 FE 00 FF 00 00 00 FE 00 FE 8D B6 25 FD FF 8B 63 AD 13 0E 63 56 0D E0 00 FF 00 FF 00 FF 00 FF 00 00 00 FF 00 FE 00 FF 00 FE 00 00 00 FE 00 FF 00 FF 00 FE 00 FF 00 FF 00 FF 00 00 FF 00 FF 00 FF 00 FF 00 FF 00 FE 00 00 FE 00 00 FE 00 FF 00 FE 00 FE 00 FF 00 FF 00 00 FF 00 
-->Received Button/Knob 255 state : 0
Decrypted Response: F6 04 F9 02 FF 06 F7 01 00 FF 00 FA 02 00 FE 00 FF 00 FF 00 FF 00 FF 00 FF 00 FF 00 00 00 FE 00 FF 00 00 00 FE 00 FE 8D B6 25 FD FF 8B 63 AD 13 0E 63 56 0D E0 00 FF 00 FF 00 FF 00 FF 00 00 00 FF 00 FE 00 FF 00 FE 00 00 00 FE 00 FF 00 FF 00 FE 00 FF 00 FF 00 FF 00 00 FF 00 FF 00 FF 00 FF 00 FF 00 FE 00 00 FE 00 00 FE 00 FF 00 FE 00 FE 00 FF 00 FF 00 00 FF 00 
Raw Response and len 120: FE 00 FF 00 FE 00 00 00 FE 00 00 00 00 FF 00 FE 00 FF 00 FF 00 FE 00 FF 00 00 FF 00 FF 00 FE 00 FF 00 FF 00 FF 00 FE 00 FE 00 FF 00 FF 00 FE 00 FF 00 FF 00 00 00 FF 00 FF 00 FF 00 FF 00 FE 00 00 FE 00 00 00 FF 00 FF 00 00 FC 00 FF 00 00 FE 00 FF 00 FF 00 00 FF 00 FF 00 FF 00 FF 00 FF 00 FF 00 FF 00 FF 00 FF 00 FE 00 FF 00 FF 00 00 FE 00 FF 00 FE 00 FE 00 FF 
-->Received Button/Knob 0 state : 0
Decrypted Response: F5 04 FA 02 FD 07 F7 02 FE 00 00 FA 03 FF 00 FE 00 FF 00 FF 00 FE 00 FF 00 00 FF 00 FF 00 FE 00 FF 00 FF 00 FF 00 FE 00 FE 00 FF 00 FF 00 FE 00 FF 00 FF 00 00 00 FF 00 FF 00 FF 00 FF 00 FE 00 00 FE 00 00 00 FF 00 FF 00 00 FC 00 FF 00 00 FE 00 FF 00 FF 00 00 FF 00 FF 00 FF 00 FF 00 FF 00 FF 00 FF 00 FF 00 FF 00 FE 00 FF 00 FF 00 00 FE 00 FF 00 FE 00 FE 00 FF 
Raw Response and len 45: 00 FF 00 FE 00 FF 00 FF 00 00 00 FF 00 FC 00 FF 00 00 00 FF 00 00 FF 00 FF 00 FE 00 FE 00 FE 00 FE 00 FF 00 FE 00 FF 00 FE 00 00 00 FE 
-->Received Button/Knob 0 state : 0
Decrypted Response: F7 03 FB 00 FF 06 F7 01 00 00 00 F9 03 FC 00 FF 00 00 00 FF 00 00 FF 00 FF 00 FE 00 FE 00 FE 00 FE 00 FF 00 FE 00 FF 00 FE 00 00 00 FE 
Raw Response and len 9: 00 00 FE 00 FE 00 FF 00 FE 
Decrypted Response: 00 00 FE 00 FE 00 FF 00 FE 
Raw Response and len 120: 00 FF 00 FF 00 FF 00 FF 00 00 FE 00 00 FF 00 FE 00 00 FF 00 FF 00 FF 00 00 FE 00 00 00 00 00 00 00 00 00 00 00 00 00 00 00 00 00 00 00 00 00 00 00 00 00 00 00 00 00 00 00 00 00 00 00 00 00 00 00 00 00 00 00 00 00 00 00 00 00 00 00 00 00 00 00 00 00 00 00 00 00 00 00 00 00 00 00 00 00 00 00 00 00 00 00 00 00 00 00 00 00 00 00 00 00 00 00 00 00 00 00 00 00 00 
-->Received Button/Knob 0 state : 134
Decrypted Response: F7 03 FB 01 FF 06 F7 01 00 00 86 FA 03 FF 00 FE 00 00 FF 00 FF 00 FF 00 00 FE 00 00 00 00 00 00 00 00 00 00 00 00 00 00 00 00 00 00 00 00 00 00 00 00 00 00 00 00 00 00 00 00 00 00 00 00 00 00 00 00 00 00 00 00 00 00 00 00 00 00 00 00 00 00 00 00 00 00 00 00 00 00 00 00 00 00 00 00 00 00 00 00 00 00 00 00 00 00 00 00 00 00 00 00 00 00 00 00 00 00 00 00 00 00 
Raw Response and len 120: 00 00 00 00 00 00 00 00 00 00 00 00 00 00 00 00 00 00 00 00 00 00 00 00 00 00 00 00 00 00 00 00 00 00 00 00 00 00 00 00 00 00 00 00 00 00 00 00 00 00 00 00 00 00 00 00 00 00 00 00 00 00 00 00 00 00 00 00 00 00 00 00 00 00 00 00 00 00 00 00 00 00 00 00 00 00 00 00 00 00 00 00 00 00 00 00 00 00 00 00 00 00 00 00 00 00 00 00 00 00 00 00 00 00 00 00 00 00 00 00 
-->Received Button/Knob 0 state : 0
Decrypted Response: F7 04 FB 02 FF 07 F7 02 00 00 00 FA 03 00 00 00 00 00 00 00 00 00 00 00 00 00 00 00 00 00 00 00 00 00 00 00 00 00 00 00 00 00 00 00 00 00 00 00 00 00 00 00 00 00 00 00 00 00 00 00 00 00 00 00 00 00 00 00 00 00 00 00 00 00 00 00 00 00 00 00 00 00 00 00 00 00 00 00 00 00 00 00 00 00 00 00 00 00 00 00 00 00 00 00 00 00 00 00 00 00 00 00 00 00 00 00 00 00 00 00 
Raw Response and len 120: 00 00 00 00 00 00 00 00 00 00 00 00 00 00 00 00 00 00 00 00 00 00 00 00 00 00 00 00 00 00 00 00 00 00 00 00 00 00 00 00 00 00 00 00 00 00 00 00 00 00 00 00 00 00 00 00 00 00 00 00 00 00 00 00 00 00 00 00 00 00 00 00 00 00 00 00 00 00 00 00 00 00 00 00 00 00 00 00 00 00 00 00 00 00 00 00 00 00 00 00 00 00 00 00 00 00 00 00 00 00 00 00 00 00 00 00 00 00 00 00 
-->Received Button/Knob 0 state : 0
Decrypted Response: F7 04 FB 02 FF 07 F7 02 00 00 00 FA 03 00 00 00 00 00 00 00 00 00 00 00 00 00 00 00 00 00 00 00 00 00 00 00 00 00 00 00 00 00 00 00 00 00 00 00 00 00 00 00 00 00 00 00 00 00 00 00 00 00 00 00 00 00 00 00 00 00 00 00 00 00 00 00 00 00 00 00 00 00 00 00 00 00 00 00 00 00 00 00 00 00 00 00 00 00 00 00 00 00 00 00 00 00 00 00 00 00 00 00 00 00 00 00 00 00 00 00 
Raw Response and len 120: 00 00 00 00 00 00 00 00 00 00 00 00 00 00 00 00 00 00 00 00 00 00 00 00 00 00 00 00 00 00 00 00 00 00 00 00 00 00 00 00 00 00 00 00 00 00 00 00 00 00 00 00 00 00 00 00 00 00 00 00 00 00 00 00 00 00 00 00 00 00 00 00 00 00 00 00 00 00 00 00 00 00 00 00 00 00 00 00 00 00 00 00 00 00 00 00 00 00 00 00 00 00 00 00 00 00 00 00 00 00 00 00 00 00 00 00 00 00 00 00 
-->Received Button/Knob 0 state : 0
Decrypted Response: F7 04 FB 02 FF 07 F7 02 00 00 00 FA 03 00 00 00 00 00 00 00 00 00 00 00 00 00 00 00 00 00 00 00 00 00 00 00 00 00 00 00 00 00 00 00 00 00 00 00 00 00 00 00 00 00 00 00 00 00 00 00 00 00 00 00 00 00 00 00 00 00 00 00 00 00 00 00 00 00 00 00 00 00 00 00 00 00 00 00 00 00 00 00 00 00 00 00 00 00 00 00 00 00 00 00 00 00 00 00 00 00 00 00 00 00 00 00 00 00 00 00 
Raw Response and len 120: 00 00 00 00 00 00 00 00 00 00 00 00 00 00 00 00 00 00 00 00 00 00 00 00 00 00 00 00 00 00 00 00 00 00 00 00 00 00 00 00 00 00 00 00 00 00 00 00 00 00 00 00 00 00 00 00 00 00 00 00 00 00 00 00 00 00 00 00 00 00 00 00 00 00 00 00 00 00 00 00 00 00 00 00 00 00 00 00 00 00 00 00 00 00 00 00 00 00 00 00 00 00 00 00 00 00 00 00 00 00 00 00 00 00 00 00 00 00 00 00 
-->Received Button/Knob 0 state : 0
Decrypted Response: F7 04 FB 02 FF 07 F7 02 00 00 00 FA 03 00 00 00 00 00 00 00 00 00 00 00 00 00 00 00 00 00 00 00 00 00 00 00 00 00 00 00 00 00 00 00 00 00 00 00 00 00 00 00 00 00 00 00 00 00 00 00 00 00 00 00 00 00 00 00 00 00 00 00 00 00 00 00 00 00 00 00 00 00 00 00 00 00 00 00 00 00 00 00 00 00 00 00 00 00 00 00 00 00 00 00 00 00 00 00 00 00 00 00 00 00 00 00 00 00 00 00 
Raw Response and len 120: 00 00 00 00 00 00 00 00 00 00 00 00 00 00 00 00 00 00 00 00 00 00 00 00 00 00 00 00 00 00 00 00 00 00 00 00 00 00 00 00 00 00 00 00 00 00 00 00 00 00 00 00 00 00 00 00 00 00 00 00 00 00 00 00 00 00 00 00 00 00 00 00 00 00 00 00 00 00 00 00 00 00 00 00 00 00 00 00 00 00 00 00 00 00 00 00 00 00 00 00 00 00 00 00 00 00 00 00 00 00 00 00 00 00 00 00 00 00 00 00 
-->Received Button/Knob 0 state : 0
Decrypted Response: F7 04 FB 02 FF 07 F7 02 00 00 00 FA 03 00 00 00 00 00 00 00 00 00 00 00 00 00 00 00 00 00 00 00 00 00 00 00 00 00 00 00 00 00 00 00 00 00 00 00 00 00 00 00 00 00 00 00 00 00 00 00 00 00 00 00 00 00 00 00 00 00 00 00 00 00 00 00 00 00 00 00 00 00 00 00 00 00 00 00 00 00 00 00 00 00 00 00 00 00 00 00 00 00 00 00 00 00 00 00 00 00 00 00 00 00 00 00 00 00 00 00 
Raw Response and len 120: 00 00 00 00 00 00 00 00 00 00 00 00 00 00 00 00 00 00 00 00 00 00 00 00 00 00 00 00 00 00 00 00 00 00 00 00 00 00 00 00 00 00 00 00 00 00 00 00 00 00 00 00 00 00 00 00 00 00 00 00 00 00 00 00 00 00 00 00 00 00 00 00 00 00 00 00 00 00 00 00 00 00 00 00 00 00 00 00 00 00 00 00 00 00 00 00 00 00 00 00 00 00 00 00 00 00 00 00 00 00 00 00 00 00 00 00 00 00 00 00 
-->Received Button/Knob 0 state : 0
Decrypted Response: F7 04 FB 02 FF 07 F7 02 00 00 00 FA 03 00 00 00 00 00 00 00 00 00 00 00 00 00 00 00 00 00 00 00 00 00 00 00 00 00 00 00 00 00 00 00 00 00 00 00 00 00 00 00 00 00 00 00 00 00 00 00 00 00 00 00 00 00 00 00 00 00 00 00 00 00 00 00 00 00 00 00 00 00 00 00 00 00 00 00 00 00 00 00 00 00 00 00 00 00 00 00 00 00 00 00 00 00 00 00 00 00 00 00 00 00 00 00 00 00 00 00 
Raw Response and len 120: 00 00 00 00 00 00 00 00 00 00 00 00 00 00 00 00 00 00 00 00 00 00 00 00 00 00 00 00 00 00 00 00 00 00 00 00 00 00 00 00 00 00 00 00 00 00 00 00 00 00 00 00 00 00 00 00 00 00 00 00 00 00 00 00 00 00 00 00 00 00 00 00 00 00 00 00 00 00 00 00 00 00 00 00 00 00 00 00 00 00 00 00 00 00 00 00 00 00 00 00 00 00 00 00 00 00 00 00 00 00 00 00 00 00 00 00 00 00 00 00 
-->Received Button/Knob 0 state : 0
Decrypted Response: F7 04 FB 02 FF 07 F7 02 00 00 00 FA 03 00 00 00 00 00 00 00 00 00 00 00 00 00 00 00 00 00 00 00 00 00 00 00 00 00 00 00 00 00 00 00 00 00 00 00 00 00 00 00 00 00 00 00 00 00 00 00 00 00 00 00 00 00 00 00 00 00 00 00 00 00 00 00 00 00 00 00 00 00 00 00 00 00 00 00 00 00 00 00 00 00 00 00 00 00 00 00 00 00 00 00 00 00 00 00 00 00 00 00 00 00 00 00 00 00 00 00 
