ESP-ROM:esp32s3-20210327
Build:Mar 27 2021
rst:0x1 (POWERON),boot:0x18 (SPI_FAST_FLASH_BOOT)
SPIWP:0xee
Octal Flash Mode Enabled
For OPI Flash, Use Default Flash Boot Mode
mode:SLOW_RD, clock div:1
load:0x3fce2810,len:0x15a0
load:0x403c8700,len:0x4
load:0x403c8704,len:0xd20
load:0x403cb700,len:0x2ee4
entry 0x403c8928
[0;32mI (33) boot: ESP-IDF HEAD-HASH-NOTFOUND 2nd stage bootloader[0m
[0;32mI (33) boot: compile time Apr 21 2025 15:45:26[0m
[0;32mI (33) boot: Multicore bootloader[0m
[0;32mI (35) boot: chip revision: v0.1[0m
[0;32mI (37) boot: efuse block revision: v1.2[0m
[0;32mI (41) boot.esp32s3: Boot SPI Speed : 80MHz[0m
[0;32mI (45) boot.esp32s3: SPI Mode       : SLOW READ[0m
[0;32mI (49) boot.esp32s3: SPI Flash Size : 2MB[0m
[0;32mI (53) boot: Enabling RNG early entropy source...[0m
[0;32mI (57) boot: Partition Table:[0m
[0;32mI (60) boot: ## Label            Usage          Type ST Offset   Length[0m
[0;32mI (66) boot:  0 nvs              WiFi data        01 02 00009000 00006000[0m
[0;32mI (73) boot:  1 phy_init         RF data          01 01 0000f000 00001000[0m
[0;32mI (79) boot:  2 factory          factory app      00 00 00010000 00100000[0m
[0;32mI (86) boot: End of partition table[0m
[0;32mI (89) esp_image: segment 0: paddr=00010020 vaddr=3c090020 size=1b594h (112020) map[0m
[0;32mI (123) esp_image: segment 1: paddr=0002b5bc vaddr=3fc9a800 size=04988h ( 18824) load[0m
[0;32mI (128) esp_image: segment 2: paddr=0002ff4c vaddr=40374000 size=000cch (   204) load[0m
[0;32mI (128) esp_image: segment 3: paddr=00030020 vaddr=42000020 size=8f164h (586084) map[0m
[0;32mI (272) esp_image: segment 4: paddr=000bf18c vaddr=403740cc size=16700h ( 91904) load[0m
[0;32mI (297) esp_image: segment 5: paddr=000d5894 vaddr=600fe100 size=0001ch (    28) load[0m
[0;32mI (306) boot: Loaded app from partition at offset 0x10000[0m
[0;32mI (306) boot: Disabling RNG early entropy source...[0m
[0;32mI (317) cpu_start: Multicore app[0m
[0;32mI (325) cpu_start: Pro cpu start user code[0m
[0;32mI (325) cpu_start: cpu freq: 160000000 Hz[0m
[0;32mI (325) app_init: Application information:[0m
[0;32mI (325) app_init: Project name:     app-template[0m
[0;32mI (330) app_init: App version:      6d4ace7[0m
[0;32mI (334) app_init: Compile time:     Apr 24 2025 11:59:59[0m
[0;32mI (339) app_init: ELF file SHA256:  aeba756e9...[0m
[0;32mI (343) app_init: ESP-IDF:          HEAD-HASH-NOTFOUND[0m
[0;32mI (348) efuse_init: Min chip rev:     v0.0[0m
[0;32mI (352) efuse_init: Max chip rev:     v0.99 [0m
[0;32mI (356) efuse_init: Chip rev:         v0.1[0m
[0;32mI (360) heap_init: Initializing. RAM available for dynamic allocation:[0m
[0;32mI (366) heap_init: At 3FCA3818 len 00045EF8 (279 KiB): RAM[0m
[0;32mI (371) heap_init: At 3FCE9710 len 00005724 (21 KiB): RAM[0m
[0;32mI (376) heap_init: At 3FCF0000 len 00008000 (32 KiB): DRAM[0m
[0;32mI (381) heap_init: At 600FE11C len 00001ECC (7 KiB): RTCRAM[0m
[0;33mW (387) spi_flash: Octal flash chip is using but dio mode is selected, will automatically switch to Octal mode[0m
[0;32mI (396) spi_flash: detected chip: mxic (opi)[0m
[0;32mI (400) spi_flash: flash io: opi_str[0m
[0;33mW (404) spi_flash: Detected size(32768k) larger than the size in the binary image header(2048k). Using the size in the binary image header.[0m
[0;32mI (416) sleep_gpio: Configure to isolate all GPIO pins in sleep state[0m
[0;32mI (422) sleep_gpio: Enable automatic switching of GPIO sleep configuration[0m
[0;32mI (429) main_task: Started on CPU0[0m
[0;32mI (439) main_task: Calling app_main()[0m
[0;32mI (459) pp: pp rom version: e7ae62f[0m
[0;32mI (459) net80211: net80211 rom version: e7ae62f[0m
[0;32mI (469) wifi:wifi driver task: 3fcad890, prio:23, stack:6656, core=0[0m
[0;32mI (469) wifi:wifi firmware version: 48ea317a7[0m
[0;32mI (469) wifi:wifi certification version: v7.0[0m
[0;32mI (469) wifi:config NVS flash: enabled[0m
[0;32mI (469) wifi:config nano formatting: disabled[0m
[0;32mI (479) wifi:Init data frame dynamic rx buffer num: 32[0m
[0;32mI (479) wifi:Init static rx mgmt buffer num: 5[0m
[0;32mI (489) wifi:Init management short buffer num: 32[0m
[0;32mI (489) wifi:Init dynamic tx buffer num: 32[0m
[0;32mI (499) wifi:Init static tx FG buffer num: 2[0m
[0;32mI (499) wifi:Init static rx buffer size: 1600[0m
[0;32mI (499) wifi:Init static rx buffer num: 10[0m
[0;32mI (509) wifi:Init dynamic rx buffer num: 32[0m
[0;32mI (509) wifi_init: rx ba win: 6[0m
[0;32mI (519) wifi_init: accept mbox: 6[0m
[0;32mI (519) wifi_init: tcpip mbox: 32[0m
[0;32mI (519) wifi_init: udp mbox: 6[0m
[0;32mI (519) wifi_init: tcp mbox: 6[0m
[0;32mI (529) wifi_init: tcp tx win: 5760[0m
[0;32mI (529) wifi_init: tcp rx win: 5760[0m
[0;32mI (529) wifi_init: tcp mss: 1440[0m
[0;32mI (539) wifi_init: WiFi IRAM OP enabled[0m
[0;32mI (539) wifi_init: WiFi RX IRAM OP enabled[0m
[0;33mW (539) wifi:Password length matches WPA2 standards, authmode threshold changes from OPEN to WPA2[0m
[0;32mI (549) phy_init: phy_version 680,a6008b2,Jun  4 2024,16:41:10[0m
[0;32mI (589) wifi:mode : sta (7c:df:a1:e1:13:60)[0m
[0;32mI (589) wifi:enable tsf[0m
[0;32mI (599) RS485_APP: No existing mappings[0m
Client list at boot:
[0] = 0
[1] = 0
[2] = 0
[3] = 0
[4] = 0
[5] = 0
[6] = 0
[0;32mI (599) wifi:new:<3,0>, old:<1,0>, ap:<255,255>, sta:<3,0>, prof:1, snd_ch_cfg:0x0[0m
[0;32mI (609) wifi:state: init -> auth (0xb0)[0m
[7] = 0
[8] = 0
[9] = 0
[0;32mI (609) main_task: Returned from app_main()[0m
[0;32mI (609) wifi:state: auth -> assoc (0x0)[0m
[0;32mI (619) wifi:state: assoc -> run (0x10)[0m
Raw Response and len 3: 00 00 FC 
Decrypted Response: 00 00 FC 
Raw Response and len 5: 03 0C 00 00 F8 
Decrypted Response: 03 0C 00 00 F8 
Raw Response and len 8: 07 00 C0 00 00 04 00 00 
Decrypted Response: 07 00 C0 00 00 04 00 00 
Raw Response and len 9: 1F 00 00 00 00 00 00 00 C0 
Decrypted Response: 1F 00 00 00 00 00 00 00 C0 
Raw Response and len 9: 00 20 00 00 00 00 00 00 F8 
Decrypted Response: 00 20 00 00 00 00 00 00 F8 
Raw Response and len 8: 00 00 00 00 00 00 00 00 
Decrypted Response: 00 00 00 00 00 00 00 00 
Raw Response and len 9: 03 00 00 00 00 00 00 00 80 
Decrypted Response: 03 00 00 00 00 00 00 00 80 
Raw Response and len 9: 03 00 20 00 00 00 00 00 FC 
Decrypted Response: 03 00 20 00 00 00 00 00 FC 
[0;32mI (839) wifi:<ba-add>idx:0 (ifx:0, 2a:87:ba:d1:c4:54), tid:0, ssn:2, winSize:64[0m
[0;32mI (839) wifi:connected with CONFIO_5G, aid = 5, channel 3, BW20, bssid = 2a:87:ba:d1:c4:54[0m
[0;32mI (849) wifi:security: WPA2-PSK, phy: bgn, rssi: -48[0m
Raw Response and len 9: C7 00 00 04 00 80 00 00 E8 
[0;32mI (849) wifi:Decrypted Response: pm start, type: 1[0m
C7 
00 I (859) wifi:00 dp: 1, bi: 102400, li: 3, scale listen interval from 307200 us to 307200 us04 00 
80 00 00 I (869) wifi:E8 set rx beacon pti, rx_bcn_pti: 0, bcn_timeout: 25000, mt_pti: 0, mt_time: 10000

[0;32mI (879) wifi:AP's beacon interval = 102400 us, DTIM period = 1[0m
Raw Response and len 17: 05 01 00 20 40 11 00 00 F0 83 00 00 04 00 80 00 C0 
-->Received Button/Knob 131 state : 0
Decrypted Response: FC 05 FB 22 3F 18 F7 02 F0 83 00 FA 07 00 80 00 C0 
Raw Response and len 8: 67 01 00 60 00 00 03 E0 
Decrypted Response: 67 01 00 60 00 00 03 E0 
Raw Response and len 8: 00 04 00 80 00 00 08 F8 
Decrypted Response: 00 04 00 80 00 00 08 F8 
Raw Response and len 8: 00 09 00 00 14 01 48 FE 
Decrypted Response: 00 09 00 00 14 01 48 FE 
Raw Response and len 8: 01 00 00 00 08 00 00 FF 
Decrypted Response: 01 00 00 00 08 00 00 FF 
Raw Response and len 8: 3F 00 80 00 00 08 00 8A 
Decrypted Response: 3F 00 80 00 00 08 00 8A 
Raw Response and len 8: 17 08 41 00 00 02 20 FE 
Decrypted Response: 17 08 41 00 00 02 20 FE 
Raw Response and len 9: FF FC 00 00 02 00 E0 00 F8 
Decrypted Response: FF FC 00 00 02 00 E0 00 F8 
Raw Response and len 8: 01 00 00 08 00 00 00 FF 
Decrypted Response: 01 00 00 08 00 00 00 FF 
Raw Response and len 9: BF 01 04 00 00 00 00 18 FC 
Decrypted Response: BF 01 04 00 00 00 00 18 FC 
Raw Response and len 8: 01 C0 04 00 26 00 A0 FE 
Decrypted Response: 01 C0 04 00 26 00 A0 FE 
Raw Response and len 8: 7F 08 00 00 00 08 00 01 
Decrypted Response: 7F 08 00 00 00 08 00 01 
Raw Response and len 7: 00 00 02 08 C0 81 80 
Decrypted Response: 00 00 02 08 C0 81 80 
Raw Response and len 8: FF 00 00 0E 10 80 00 F8 
Decrypted Response: FF 00 00 0E 10 80 00 F8 
Raw Response and len 7: BB 00 00 06 00 D0 01 
Decrypted Response: BB 00 00 06 00 D0 01 
Raw Response and len 9: FF 3F 06 00 C0 00 00 1C FF 
Decrypted Response: FF 3F 06 00 C0 00 00 1C FF 
Raw Response and len 8: 0D C0 00 00 0C 00 80 FC 
Decrypted Response: 0D C0 00 00 0C 00 80 FC 
Raw Response and len 8: FF 81 1F 00 80 10 14 FC 
Decrypted Response: FF 81 1F 00 80 10 14 FC 
Raw Response and len 7: 15 E0 00 00 0E 08 F0 
Decrypted Response: 15 E0 00 00 0E 08 F0 
Raw Response and len 7: 05 01 0C 00 88 00 F0 
Decrypted Response: 05 01 0C 00 88 00 F0 
Raw Response and len 7: FF 00 88 00 00 1C E0 
Decrypted Response: FF 00 88 00 00 1C E0 
Raw Response and len 7: 5D 08 00 07 00 C0 E0 
Decrypted Response: 5D 08 00 07 00 C0 E0 
Raw Response and len 8: 4D 80 80 00 08 00 10 F0 
Decrypted Response: 4D 80 80 00 08 00 10 F0 
Raw Response and len 8: FF BD C4 00 00 14 40 82 
Decrypted Response: FF BD C4 00 00 14 40 82 
Raw Response and len 8: FF 43 70 00 00 1E 02 F0 
Decrypted Response: FF 43 70 00 00 1E 02 F0 
Raw Response and len 8: FF C2 00 03 08 E0 06 F0 
Decrypted Response: FF C2 00 03 08 E0 06 F0 
Raw Response and len 9: FF CE 00 40 06 00 80 00 FC 
Decrypted Response: FF CE 00 40 06 00 80 00 FC 
Raw Response and len 8: 5F 19 00 00 80 11 09 F8 
Decrypted Response: 5F 19 00 00 80 11 09 F8 
Raw Response and len 8: 7F F0 22 00 80 00 00 00 
Decrypted Response: 7F F0 22 00 80 00 00 00 
Raw Response and len 8: 2F 00 06 00 80 00 00 E8 
Decrypted Response: 2F 00 06 00 80 00 00 E8 
Raw Response and len 9: FF 20 00 0C 00 80 00 00 FE 
Decrypted Response: FF 20 00 0C 00 80 00 00 FE 
Raw Response and len 9: FF 8F 00 80 00 00 28 00 F8 
Decrypted Response: FF 8F 00 80 00 00 28 00 F8 
Raw Response and len 8: 9F 00 00 18 08 00 00 F8 
Decrypted Response: 9F 00 00 18 08 00 00 F8 
Raw Response and len 8: 0D 06 00 80 00 00 08 F0 
Decrypted Response: 0D 06 00 80 00 00 08 F0 
Raw Response and len 8: 17 80 00 00 18 00 15 F0 
Decrypted Response: 17 80 00 00 18 00 15 F0 
Raw Response and len 8: 17 E2 00 00 96 10 81 FE 
Decrypted Response: 17 E2 00 00 96 10 81 FE 
Raw Response and len 8: FF 0C 62 00 00 0E 14 E0 
Decrypted Response: FF 0C 62 00 00 0E 14 E0 
Raw Response and len 8: FF 03 30 06 00 80 09 80 
Decrypted Response: FF 03 30 06 00 80 09 80 
Raw Response and len 8: FF 0D 00 00 00 38 00 FF 
Decrypted Response: FF 0D 00 00 00 38 00 FF 
Raw Response and len 8: FF 08 02 0E 00 9A 00 FF 
Decrypted Response: FF 08 02 0E 00 9A 00 FF 
Raw Response and len 9: FF FF 16 01 C0 00 FC 0C FF 
Decrypted Response: FF FF 16 01 C0 00 FC 0C FF 
Raw Response and len 9: FF B5 E9 01 00 06 02 C0 FE 
Decrypted Response: FF B5 E9 01 00 06 02 C0 FE 
Raw Response and len 8: FF 1B C0 01 51 1D 08 80 
Decrypted Response: FF 1B C0 01 51 1D 08 80 
Raw Response and len 8: FF 47 68 00 00 DE 00 F8 
Decrypted Response: FF 47 68 00 00 DE 00 F8 
Raw Response and len 7: 1F 23 38 00 44 00 F0 
Decrypted Response: 1F 23 38 00 44 00 F0 
Raw Response and len 7: 2F 68 F1 00 40 2A F0 
Decrypted Response: 2F 68 F1 00 40 2A F0 
Raw Response and len 8: 7F DF 0B A1 5E E0 E0 E0 
Decrypted Response: 7F DF 0B A1 5E E0 E0 E0 
Raw Response and len 9: FF 57 C0 00 50 0E 8E 80 FE 
Decrypted Response: FF 57 C0 00 50 0E 8E 80 FE 
Raw Response and len 7: FE A3 20 22 C7 01 F0 
Decrypted Response: FE A3 20 22 C7 01 F0 
Raw Response and len 7: FF E5 3C 91 88 03 02 
Decrypted Response: FF E5 3C 91 88 03 02 
Raw Response and len 7: FF E7 E6 40 C8 00 C0 
Decrypted Response: FF E7 E6 40 C8 00 C0 
Raw Response and len 8: FF FF 57 7D 00 9F 10 FE 
Decrypted Response: FF FF 57 7D 00 9F 10 FE 
Raw Response and len 7: 83 00 00 0E 20 81 C0 
Decrypted Response: 83 00 00 0E 20 81 C0 
Raw Response and len 8: DD A0 00 00 06 06 90 F8 
Decrypted Response: DD A0 00 00 06 06 90 F8 
Raw Response and len 8: 1C 80 00 00 A8 10 00 FF 
Decrypted Response: 1C 80 00 00 A8 10 00 FF 
Raw Response and len 8: FF 80 C1 00 00 1C 00 C0 
Decrypted Response: FF 80 C1 00 00 1C 00 C0 
Raw Response and len 9: FF FF 00 00 00 00 1F 00 FC 
Decrypted Response: FF FF 00 00 00 00 1F 00 FC 
Raw Response and len 7: FC 00 80 38 18 1A 00 
Decrypted Response: FC 00 80 38 18 1A 00 
Raw Response and len 7: EB 08 00 0E 10 C0 00 
Decrypted Response: EB 08 00 0E 10 C0 00 
Raw Response and len 8: FF FD BE 35 A7 30 79 FF 
Decrypted Response: FF FD BE 35 A7 30 79 FF 
Raw Response and len 6: FF CF 95 E2 09 C5 
Decrypted Response: FF CF 95 E2 09 C5 
Raw Response and len 8: FF FE 3F C0 8F 02 40 FF 
Decrypted Response: FF FE 3F C0 8F 02 40 FF 
Raw Response and len 8: FF AC C0 08 68 0D 01 FC 
Decrypted Response: FF AC C0 08 68 0D 01 FC 
Raw Response and len 7: 17 80 C1 00 34 0C 00 
Decrypted Response: 17 80 C1 00 34 0C 00 
Raw Response and len 7: FF FF F0 D3 C2 04 41 
Decrypted Response: FF FF F0 D3 C2 04 41 
Raw Response and len 7: FF F6 3F 6E 0E C8 8F 
Decrypted Response: FF F6 3F 6E 0E C8 8F 
Raw Response and len 5: FF AD E0 01 F4 
Decrypted Response: FF AD E0 01 F4 
Raw Response and len 7: FF 5F 12 40 00 00 FE 
Decrypted Response: FF 5F 12 40 00 00 FE 
Raw Response and len 7: FF FF EF 6F BC BD DD 
Decrypted Response: FF FF EF 6F BC BD DD 
Raw Response and len 5: BB 63 AF 1D D1 
Decrypted Response: BB 63 AF 1D D1 
Raw Response and len 7: FF FF F7 CF 5F BD FA 
Decrypted Response: FF FF F7 CF 5F BD FA 
Raw Response and len 7: FF FF FF F5 FF 7C FF 
Decrypted Response: FF FF FF F5 FF 7C FF 
Raw Response and len 6: FF FF 7F 7F 44 C4 
Decrypted Response: FF FF 7F 7F 44 C4 
Raw Response and len 7: FF F5 01 A0 40 20 FC 
Decrypted Response: FF F5 01 A0 40 20 FC 
Raw Response and len 7: FF BE FF FF D6 CE FF 
Decrypted Response: FF BE FF FF D6 CE FF 
Raw Response and len 5: FF FB BF F5 7B 
Decrypted Response: FF FB BF F5 7B 
Raw Response and len 6: FF FD FF 7F EE F9 
Decrypted Response: FF FD FF 7F EE F9 
[0;32mI (2419) esp_netif_handlers: sta ip: 192.168.0.106, mask: 255.255.255.0, gw: 192.168.0.1[0m
[0;32mI (2419) RS485_APP: Connected! IP Address: 192.168.0.106[0m
ESP32 IP Address: 192.168.0.106
Raw Response and len 5: FF FF FF FC FF 
Decrypted Response: FF FF FF FC FF 
Raw Response and len 7: FF DB 24 AA AF 64 E2 
Decrypted Response: FF DB 24 AA AF 64 E2 
Raw Response and len 5: FF FF F7 FB FF 
Decrypted Response: FF FF F7 FB FF 
Raw Response and len 8: 3E 11 83 01 FC 04 04 E0 
Decrypted Response: 3E 11 83 01 FC 04 04 E0 
Raw Response and len 7: EF 7D B5 91 22 04 E8 
Decrypted Response: EF 7D B5 91 22 04 E8 
Raw Response and len 7: 3F 66 75 06 00 03 F2 
Decrypted Response: 3F 66 75 06 00 03 F2 
Raw Response and len 8: FF DF 65 A0 2B 08 1E FF 
Decrypted Response: FF DF 65 A0 2B 08 1E FF 
Raw Response and len 6: FF F7 7F 13 BF FF 
Decrypted Response: FF F7 7F 13 BF FF 
Raw Response and len 3: FF FF FF 
Decrypted Response: FF FF FF 
Raw Response and len 3: FE 9F CF 
Decrypted Response: FE 9F CF 
Raw Response and len 6: FF FF FF 7F 6B FF 
Decrypted Response: FF FF FF 7F 6B FF 
Raw Response and len 5: FF FF FD 57 3F 
Decrypted Response: FF FF FD 57 3F 
Raw Response and len 3: FE FF FF 
Decrypted Response: FE FF FF 
Raw Response and len 6: FF FF FF FF DE FF 
Decrypted Response: FF FF FF FF DE FF 
Raw Response and len 4: FF FF FF FF 
Decrypted Response: FF FF FF FF 
Raw Response and len 4: FF FF FF FF 
Decrypted Response: FF FF FF FF 
Raw Response and len 7: FF FF EF DF FF EF FF 
Decrypted Response: FF FF EF DF FF EF FF 
Raw Response and len 3: FF FF FF 
Decrypted Response: FF FF FF 
Raw Response and len 2: EF 7F 
Decrypted Response: EF 7F 
Raw Response and len 5: FF FF FF FE FF 
Decrypted Response: FF FF FF FE FF 
Raw Response and len 2: FF FF 
Decrypted Response: FF FF 
Raw Response and len 7: FF FF F1 EE FB FE FB 
Decrypted Response: FF FF F1 EE FB FE FB 
Raw Response and len 3: FF DF FF 
Decrypted Response: FF DF FF 
Raw Response and len 2: FF ED 
Decrypted Response: FF ED 
Raw Response and len 5: FF FF FF FF FF 
Decrypted Response: FF FF FF FF FF 
Raw Response and len 4: FF FF FF FF 
Decrypted Response: FF FF FF FF 
Raw Response and len 4: FF FF 5C FF 
Decrypted Response: FF FF 5C FF 
Raw Response and len 4: FF FF DF FF 
Decrypted Response: FF FF DF FF 
Raw Response and len 4: FF FF FF FE 
Decrypted Response: FF FF FF FE 
Raw Response and len 2: FF FF 
Decrypted Response: FF FF 
Raw Response and len 3: FF FF FF 
Decrypted Response: FF FF FF 
Raw Response and len 6: FF FF FF FF FF FF 
Decrypted Response: FF FF FF FF FF FF 
Raw Response and len 4: FF BF FF FF 
Decrypted Response: FF BF FF FF 
Raw Response and len 3: FF FF FF 
Decrypted Response: FF FF FF 
Raw Response and len 5: FF FF FF FF FF 
Decrypted Response: FF FF FF FF FF 
Raw Response and len 4: FF FF BF FB 
Decrypted Response: FF FF BF FB 
Raw Response and len 2: FF FF 
Decrypted Response: FF FF 
Raw Response and len 3: FF FF EF 
Decrypted Response: FF FF EF 
Raw Response and len 3: FF FF FE 
Decrypted Response: FF FF FE 
Raw Response and len 3: FF FF FF 
Decrypted Response: FF FF FF 
Raw Response and len 3: FF FF FF 
Decrypted Response: FF FF FF 
Raw Response and len 4: DF FF FF FF 
Decrypted Response: DF FF FF FF 
Raw Response and len 4: FF BF FF FF 
Decrypted Response: FF BF FF FF 
Raw Response and len 4: FF FF FF FF 
Decrypted Response: FF FF FF FF 
Raw Response and len 4: FF FF FF FF 
Decrypted Response: FF FF FF FF 
Raw Response and len 4: FF FF EF FF 
Decrypted Response: FF FF EF FF 
Raw Response and len 4: FF FF FF FF 
Decrypted Response: FF FF FF FF 
Raw Response and len 5: FF FB FF FF FF 
Decrypted Response: FF FB FF FF FF 
Raw Response and len 2: FF FF 
Decrypted Response: FF FF 
Raw Response and len 2: FF FF 
Decrypted Response: FF FF 
[0;32mI (3419) mdns_mem: mDNS task will be created from internal RAM[0m
mdns hostname set to: [confiors485]
Raw Response and len 3: FF FF FF 
Decrypted Response: FF FF FF 
Raw Response and len 6: FF FF FF FF FF FF 
Decrypted Response: FF FF FF FF FF FF 
Raw Response and len 5: FF DF FF FF FF 
Decrypted Response: FF DF FF FF FF 
Raw Response and len 3: FF FF FF 
Decrypted Response: FF FF FF 
Raw Response and len 4: FF EF FF FF 
Decrypted Response: FF EF FF FF 
Raw Response and len 3: FF FB FF 
Decrypted Response: FF FB FF 
Raw Response and len 2: FF FF 
Decrypted Response: FF FF 
Raw Response and len 3: FF FE 7F 
Decrypted Response: FF FE 7F 
Raw Response and len 5: FF 7F FF F7 FE 
Decrypted Response: FF 7F FF F7 FE 
Raw Response and len 4: FA FF FF FF 
Decrypted Response: FA FF FF FF 
Raw Response and len 4: FF FF FF FF 
Decrypted Response: FF FF FF FF 
Raw Response and len 5: FF FF FF FD FF 
Decrypted Response: FF FF FF FD FF 
Raw Response and len 3: FF FD FF 
Decrypted Response: FF FD FF 
Raw Response and len 3: BF FD FF 
Decrypted Response: BF FD FF 
Raw Response and len 1: FF 
Decrypted Response: FF 
Raw Response and len 2: FF FF 
Decrypted Response: FF FF 
Raw Response and len 2: FF FF 
Decrypted Response: FF FF 
Raw Response and len 4: FF FD FF FF 
Decrypted Response: FF FD FF FF 
Raw Response and len 2: FF FF 
Decrypted Response: FF FF 
Raw Response and len 4: FF EF FF FF 
Decrypted Response: FF EF FF FF 
Raw Response and len 3: FF FF FF 
Decrypted Response: FF FF FF 
Raw Response and len 2: FF FF 
Decrypted Response: FF FF 
Raw Response and len 4: FF FF FF FF 
Decrypted Response: FF FF FF FF 
Raw Response and len 2: FF FF 
Decrypted Response: FF FF 
Raw Response and len 4: FF FF FF FF 
Decrypted Response: FF FF FF FF 
TCP server listening on port 5000
Raw Response and len 22: FF FF 8D B6 25 FD FF 8B 63 AD 10 12 45 56 0D 00 00 00 00 00 00 80 
-->Received Button/Knob 173 state : 0
Decrypted Response: F6 03 88 B8 24 04 F6 8D 63 AD 00 0C 48 56 0D 00 00 00 00 00 00 80 
Raw Response and len 9: 3F 10 00 00 00 00 00 00 00 
Decrypted Response: 3F 10 00 00 00 00 00 00 00 
Raw Response and len 9: 00 00 00 00 00 00 00 00 FE 
Decrypted Response: 00 00 00 00 00 00 00 00 FE 
Raw Response and len 9: 08 20 00 00 00 00 00 00 FE 
Decrypted Response: 08 20 00 00 00 00 00 00 FE 
Raw Response and len 9: 00 00 00 00 00 00 00 00 FF 
Decrypted Response: 00 00 00 00 00 00 00 00 FF 
Raw Response and len 9: 03 00 10 00 00 10 00 08 FF 
Decrypted Response: 03 00 10 00 00 10 00 08 FF 
Raw Response and len 9: CF 00 00 00 00 00 00 00 F8 
Decrypted Response: CF 00 00 00 00 00 00 00 F8 
Raw Response and len 8: 40 00 00 00 00 00 00 00 
Decrypted Response: 40 00 00 00 00 00 00 00 
Raw Response and len 9: 01 01 00 20 00 00 00 00 FF 
Decrypted Response: 01 01 00 20 00 00 00 00 FF 
Raw Response and len 8: 04 00 00 00 00 10 00 00 
Decrypted Response: 04 00 00 00 00 10 00 00 
Raw Response and len 9: 00 00 00 00 00 00 00 00 FC 
Decrypted Response: 00 00 00 00 00 00 00 00 FC 
Raw Response and len 9: 00 00 00 00 00 00 00 00 FF 
Decrypted Response: 00 00 00 00 00 00 00 00 FF 
Raw Response and len 9: 3F 00 00 00 00 00 00 00 80 
Decrypted Response: 3F 00 00 00 00 00 00 00 80 
Raw Response and len 9: 03 00 00 00 00 00 00 00 F0 
Decrypted Response: 03 00 00 00 00 00 00 00 F0 
Raw Response and len 9: 00 00 00 01 00 00 00 00 FC 
Decrypted Response: 00 00 00 01 00 00 00 00 FC 
Raw Response and len 9: 00 00 00 00 00 00 10 00 FF 
Decrypted Response: 00 00 00 00 00 00 10 00 FF 
Raw Response and len 9: 07 00 00 00 00 00 20 00 FE 
Decrypted Response: 07 00 00 00 00 00 20 00 FE 
Raw Response and len 9: 00 00 04 00 00 00 00 00 FE 
Decrypted Response: 00 00 04 00 00 00 00 00 FE 
Raw Response and len 9: BF 00 00 00 00 00 00 00 80 
Decrypted Response: BF 00 00 00 00 00 00 00 80 
Raw Response and len 9: 12 00 00 00 00 00 00 00 FF 
Decrypted Response: 12 00 00 00 00 00 00 00 FF 
Raw Response and len 9: 00 00 00 00 00 00 00 00 FE 
Decrypted Response: 00 00 00 00 00 00 00 00 FE 
Raw Response and len 9: 02 08 00 00 00 00 10 00 FC 
Decrypted Response: 02 08 00 00 00 00 10 00 FC 
Raw Response and len 9: 0B 01 02 00 00 00 00 00 F0 
Decrypted Response: 0B 01 02 00 00 00 00 00 F0 
Raw Response and len 9: 3F 00 00 00 00 00 00 00 80 
Decrypted Response: 3F 00 00 00 00 00 00 00 80 
Raw Response and len 9: 0F 00 00 00 00 00 00 80 FC 
Decrypted Response: 0F 00 00 00 00 00 00 80 FC 
Raw Response and len 9: 20 00 00 00 00 80 00 00 F8 
Decrypted Response: 20 00 00 00 00 80 00 00 F8 
Raw Response and len 9: 01 02 00 00 00 00 00 00 FC 
Decrypted Response: 01 02 00 00 00 00 00 00 FC 
Raw Response and len 9: 00 08 00 00 00 00 00 00 FC 
Decrypted Response: 00 08 00 00 00 00 00 00 FC 
Raw Response and len 9: 00 00 00 00 00 00 00 00 FC 
Decrypted Response: 00 00 00 00 00 00 00 00 FC 
Raw Response and len 9: 01 00 00 00 00 00 00 00 FC 
Decrypted Response: 01 00 00 00 00 00 00 00 FC 
Raw Response and len 9: 3F 00 00 00 00 00 00 00 E0 
Decrypted Response: 3F 00 00 00 00 00 00 00 E0 
Raw Response and len 9: 19 00 00 00 00 00 00 00 FE 
Decrypted Response: 19 00 00 00 00 00 00 00 FE 
Raw Response and len 9: 03 01 00 00 00 00 00 00 F0 
Decrypted Response: 03 01 00 00 00 00 00 00 F0 
Raw Response and len 9: 00 02 00 00 00 00 00 00 FE 
Decrypted Response: 00 02 00 00 00 00 00 00 FE 
Raw Response and len 9: 1F 00 02 00 40 00 00 02 C0 
Decrypted Response: 1F 00 02 00 40 00 00 02 C0 
Raw Response and len 9: 03 00 02 00 00 00 00 00 F8 
Decrypted Response: 03 00 02 00 00 00 00 00 F8 
Raw Response and len 9: 07 00 20 00 00 00 00 00 FC 
Decrypted Response: 07 00 20 00 00 00 00 00 FC 
Raw Response and len 9: 08 00 00 00 00 00 00 00 FC 
Decrypted Response: 08 00 00 00 00 00 00 00 FC 
Raw Response and len 9: 7F 08 00 00 00 00 00 00 E0 
Decrypted Response: 7F 08 00 00 00 00 00 00 E0 
Raw Response and len 9: 3F 00 00 00 00 00 80 00 C0 
Decrypted Response: 3F 00 00 00 00 00 80 00 C0 
Raw Response and len 9: 00 20 00 00 00 00 00 00 FF 
Decrypted Response: 00 20 00 00 00 00 00 00 FF 
Raw Response and len 9: 01 00 01 00 00 00 00 00 FE 
Decrypted Response: 01 00 01 00 00 00 00 00 FE 
Raw Response and len 9: 01 00 00 00 00 04 00 00 FF 
Decrypted Response: 01 00 00 00 00 04 00 00 FF 
Raw Response and len 9: C7 00 00 00 00 00 00 00 C0 
Decrypted Response: C7 00 00 00 00 00 00 00 C0 
Raw Response and len 8: 30 00 00 01 00 20 00 00 
Decrypted Response: 30 00 00 01 00 20 00 00 
Raw Response and len 8: 00 00 00 00 00 00 00 00 
Decrypted Response: 00 00 00 00 00 00 00 00 
Raw Response and len 9: 00 08 00 00 00 10 10 00 FF 
Decrypted Response: 00 08 00 00 00 10 10 00 FF 
Raw Response and len 9: 0F 00 08 00 00 00 00 00 E0 
Decrypted Response: 0F 00 08 00 00 00 00 00 E0 
Raw Response and len 9: 00 20 00 00 40 00 00 04 FF 
Decrypted Response: 00 20 00 00 40 00 00 04 FF 
Raw Response and len 8: 00 04 04 00 00 00 00 80 
Decrypted Response: 00 04 04 00 00 00 00 80 
Raw Response and len 9: 7F 01 00 20 00 00 00 00 E0 
Decrypted Response: 7F 01 00 20 00 00 00 00 E0 
Raw Response and len 9: 1F 30 00 00 00 00 00 00 C0 
Decrypted Response: 1F 30 00 00 00 00 00 00 C0 
Raw Response and len 9: 7F 00 01 00 00 00 00 00 00 
Decrypted Response: 7F 00 01 00 00 00 00 00 00 
Raw Response and len 9: 00 00 00 00 04 00 80 00 FE 
Decrypted Response: 00 00 00 00 04 00 80 00 FE 
Raw Response and len 8: 00 00 00 00 00 00 00 00 
Decrypted Response: 00 00 00 00 00 00 00 00 
Raw Response and len 9: 1F 20 00 01 00 00 00 00 E0 
Decrypted Response: 1F 20 00 01 00 00 00 00 E0 
Raw Response and len 9: 10 00 00 00 00 00 00 00 FF 
Decrypted Response: 10 00 00 00 00 00 00 00 FF 
Raw Response and len 9: 00 01 00 00 00 00 00 00 FE 
Decrypted Response: 00 01 00 00 00 00 00 00 FE 
Raw Response and len 9: 00 04 00 00 00 00 00 00 FF 
Decrypted Response: 00 04 00 00 00 00 00 00 FF 
Raw Response and len 8: 00 20 00 00 01 00 00 00 
Decrypted Response: 00 20 00 00 01 00 00 00 
Raw Response and len 8: 00 00 00 00 00 00 00 00 
Decrypted Response: 00 00 00 00 00 00 00 00 
Raw Response and len 9: 7F 00 00 00 00 08 00 00 F8 
Decrypted Response: 7F 00 00 00 00 08 00 00 F8 
Raw Response and len 8: 01 00 00 00 00 02 00 00 
Decrypted Response: 01 00 00 00 00 02 00 00 
Raw Response and len 9: 80 00 00 00 00 00 00 00 FE 
Decrypted Response: 80 00 00 00 00 00 00 00 FE 
Raw Response and len 9: 0D 00 00 20 00 00 02 00 FF 
Decrypted Response: 0D 00 00 20 00 00 02 00 FF 
Raw Response and len 8: 00 04 00 00 00 00 08 00 
Decrypted Response: 00 04 00 00 00 00 08 00 
Raw Response and len 8: 09 00 00 00 08 00 00 00 
Decrypted Response: 09 00 00 00 08 00 00 00 
Raw Response and len 9: 25 00 00 00 00 00 40 00 FC 
Decrypted Response: 25 00 00 00 00 00 40 00 FC 
Raw Response and len 9: 1C 00 80 00 00 00 00 00 FF 
Decrypted Response: 1C 00 80 00 00 00 00 00 FF 
Raw Response and len 9: 01 00 00 00 00 00 00 00 FC 
Decrypted Response: 01 00 00 00 00 00 00 00 FC 
Raw Response and len 9: 1F 21 00 00 00 00 20 00 F0 
Decrypted Response: 1F 21 00 00 00 00 20 00 F0 
Raw Response and len 9: 7F 00 00 00 00 00 08 00 E0 
Decrypted Response: 7F 00 00 00 00 00 08 00 E0 
Raw Response and len 8: 01 40 00 00 02 08 00 80 
Decrypted Response: 01 40 00 00 02 08 00 80 
Raw Response and len 9: 1F 00 80 00 00 00 00 80 F0 
Decrypted Response: 1F 00 80 00 00 00 00 80 F0 
Raw Response and len 9: 0F 00 00 00 00 00 00 00 FF 
Decrypted Response: 0F 00 00 00 00 00 00 00 FF 
Raw Response and len 9: FF 06 04 00 00 00 00 00 C0 
Decrypted Response: FF 06 04 00 00 00 00 00 C0 
Raw Response and len 8: 20 00 00 00 00 40 00 C0 
Decrypted Response: 20 00 00 00 00 40 00 C0 
Raw Response and len 8: 06 00 00 00 00 00 08 00 
Decrypted Response: 06 00 00 00 00 00 08 00 
Raw Response and len 9: 17 00 00 00 00 00 00 00 E0 
Decrypted Response: 17 00 00 00 00 00 00 00 E0 
Raw Response and len 9: BF 80 00 00 00 00 00 00 C0 
Decrypted Response: BF 80 00 00 00 00 00 00 C0 
Raw Response and len 9: FF 00 00 04 00 00 00 00 88 
Decrypted Response: FF 00 00 04 00 00 00 00 88 
Raw Response and len 9: 67 00 00 04 00 00 00 00 FE 
Decrypted Response: 67 00 00 04 00 00 00 00 FE 
Raw Response and len 9: 7F 18 00 00 00 00 00 00 F0 
Decrypted Response: 7F 18 00 00 00 00 00 00 F0 
Raw Response and len 8: 00 03 00 00 00 00 02 00 
Decrypted Response: 00 03 00 00 00 00 02 00 
Raw Response and len 9: 1F 00 00 00 00 00 00 00 FE 
Decrypted Response: 1F 00 00 00 00 00 00 00 FE 
Raw Response and len 8: 00 80 00 00 00 00 00 A0 
Decrypted Response: 00 80 00 00 00 00 00 A0 
Raw Response and len 14: FF 00 00 00 00 80 00 00 B8 00 FF FF 00 FF 
-->Received Button/Knob 0 state : 135
Decrypted Response: F6 04 FB 02 FF 87 F7 02 B8 00 87 F9 03 FF 
Raw Response and len 5: FF FC 00 F8 FF 
Decrypted Response: FF FC 00 F8 FF 
Raw Response and len 9: 0F 00 02 00 40 00 00 04 E0 
Decrypted Response: 0F 00 02 00 40 00 00 04 E0 
Raw Response and len 4: 00 00 00 FF 
Decrypted Response: 00 00 00 FF 
Raw Response and len 2: 00 FF 
Decrypted Response: 00 FF 
Raw Response and len 2: 00 FF 
Decrypted Response: 00 FF 
Raw Response and len 1: 00 
Decrypted Response: 00 
Raw Response and len 2: 00 FF 
Decrypted Response: 00 FF 
Raw Response and len 9: 00 00 00 00 00 00 00 00 FD 
Decrypted Response: 00 00 00 00 00 00 00 00 FD 
Raw Response and len 2: 00 FF 
Decrypted Response: 00 FF 
Raw Response and len 2: 00 FF 
Decrypted Response: 00 FF 
Raw Response and len 2: 00 FF 
Decrypted Response: 00 FF 
Raw Response and len 2: 00 FF 
Decrypted Response: 00 FF 
Raw Response and len 2: 00 FF 
Decrypted Response: 00 FF 
Raw Response and len 2: 00 FF 
Decrypted Response: 00 FF 
Raw Response and len 1: 00 
Decrypted Response: 00 
Raw Response and len 2: 00 FF 
Decrypted Response: 00 FF 
Raw Response and len 2: 00 FF 
Decrypted Response: 00 FF 
Raw Response and len 2: 00 FF 
Decrypted Response: 00 FF 
Raw Response and len 2: 00 FF 
Decrypted Response: 00 FF 
Raw Response and len 2: 00 FF 
Decrypted Response: 00 FF 
Raw Response and len 2: 00 FE 
Decrypted Response: 00 FE 
Raw Response and len 1: 00 
Decrypted Response: 00 
Raw Response and len 1: 00 
Decrypted Response: 00 
Raw Response and len 2: 00 FF 
Decrypted Response: 00 FF 
Raw Response and len 1: 00 
Decrypted Response: 00 
Raw Response and len 1: 00 
Decrypted Response: 00 
Raw Response and len 3: 00 00 FF 
Decrypted Response: 00 00 FF 
Raw Response and len 6: 1A 00 00 00 00 F0 
Decrypted Response: 1A 00 00 00 00 F0 
Raw Response and len 7: 00 00 00 00 00 00 FC 
Decrypted Response: 00 00 00 00 00 00 FC 
Raw Response and len 2: 00 FF 
Decrypted Response: 00 FF 
Raw Response and len 2: 00 FF 
Decrypted Response: 00 FF 
Raw Response and len 2: 00 FF 
Decrypted Response: 00 FF 
Raw Response and len 1: 00 
Decrypted Response: 00 
Raw Response and len 2: 00 FE 
Decrypted Response: 00 FE 
Raw Response and len 2: 00 FE 
Decrypted Response: 00 FE 
Raw Response and len 2: 00 FF 
Decrypted Response: 00 FF 
Raw Response and len 1: 00 
Decrypted Response: 00 
Raw Response and len 2: 00 FF 
Decrypted Response: 00 FF 
Raw Response and len 2: 00 FF 
Decrypted Response: 00 FF 
Raw Response and len 2: 00 FF 
Decrypted Response: 00 FF 
Raw Response and len 2: 00 FF 
Decrypted Response: 00 FF 
Raw Response and len 2: 00 FF 
Decrypted Response: 00 FF 
Raw Response and len 2: 00 FF 
Decrypted Response: 00 FF 
Raw Response and len 1: 00 
Decrypted Response: 00 
Raw Response and len 1: 00 
Decrypted Response: 00 
[0;32mI (6619) wifi:<ba-add>idx:1 (ifx:0, 2a:87:ba:d1:c4:54), tid:6, ssn:0, winSize:64[0m
Raw Response and len 1: 00 
Decrypted Response: 00 
Raw Response and len 2: 00 FF 
Decrypted Response: 00 FF 
Raw Response and len 2: 00 FF 
Decrypted Response: 00 FF 
Raw Response and len 2: 00 FF 
Decrypted Response: 00 FF 
Raw Response and len 2: 00 FE 
Decrypted Response: 00 FE 
Raw Response and len 2: 00 FF 
Decrypted Response: 00 FF 
Raw Response and len 1: 00 
Decrypted Response: 00 
Raw Response and len 1: 00 
Decrypted Response: 00 
Raw Response and len 2: 00 FF 
Decrypted Response: 00 FF 
Raw Response and len 120: 00 FF 00 00 00 00 00 00 00 00 00 00 00 00 00 00 00 00 00 00 00 00 00 00 00 00 00 00 00 00 00 00 00 00 00 00 00 00 00 00 00 00 00 00 00 00 00 00 00 00 00 00 00 00 00 00 00 00 00 00 00 00 00 00 00 00 00 00 00 00 00 00 00 00 00 00 00 00 00 00 00 00 00 00 00 00 00 00 00 00 00 00 00 00 00 00 00 00 00 00 00 00 00 00 00 00 00 00 00 00 00 00 00 00 00 00 00 00 00 00 
-->Received Button/Knob 0 state : 0
Decrypted Response: F7 03 FB 02 FF 07 F7 02 00 00 00 FA 03 00 00 00 00 00 00 00 00 00 00 00 00 00 00 00 00 00 00 00 00 00 00 00 00 00 00 00 00 00 00 00 00 00 00 00 00 00 00 00 00 00 00 00 00 00 00 00 00 00 00 00 00 00 00 00 00 00 00 00 00 00 00 00 00 00 00 00 00 00 00 00 00 00 00 00 00 00 00 00 00 00 00 00 00 00 00 00 00 00 00 00 00 00 00 00 00 00 00 00 00 00 00 00 00 00 00 00 
Raw Response and len 120: 00 8D B6 25 FD FF 8B 63 AD 13 0B 4A 56 0D 00 00 00 00 00 00 00 00 00 00 00 00 00 00 00 00 00 00 00 00 00 00 00 00 00 00 00 00 00 00 00 00 00 00 00 00 00 00 00 00 00 00 00 00 00 00 00 00 00 00 00 00 00 00 00 00 00 00 00 00 00 00 00 00 00 00 00 00 00 00 00 00 00 00 00 00 00 00 00 00 00 00 00 00 00 00 00 00 00 00 00 00 00 00 00 00 00 00 00 00 00 00 00 00 00 00 
-->Received Button/Knob 1 state : 0
Decrypted Response: F7 91 B1 27 FC 06 82 65 AD 01 00 44 59 0D 00 00 00 00 00 00 00 00 00 00 00 00 00 00 00 00 00 00 00 00 00 00 00 00 00 00 00 00 00 00 00 00 00 00 00 00 00 00 00 00 00 00 00 00 00 00 00 00 00 00 00 00 00 00 00 00 00 00 00 00 00 00 00 00 00 00 00 00 00 00 00 00 00 00 00 00 00 00 00 00 00 00 00 00 00 00 00 00 00 00 00 00 00 00 00 00 00 00 00 00 00 00 00 00 00 00 
Raw Response and len 120: 00 00 00 00 00 00 00 00 00 00 00 00 00 00 00 00 00 00 00 00 00 00 00 00 00 00 00 00 00 00 00 00 00 00 00 00 00 00 00 00 00 8D B6 25 FD FF FF 01 00 00 00 00 00 00 00 00 00 00 00 00 00 00 00 00 00 00 00 00 00 00 00 00 00 00 00 00 00 00 00 00 00 00 00 00 00 00 00 00 00 00 00 00 00 00 00 00 00 00 00 00 00 00 00 00 00 00 00 00 00 00 00 00 00 00 00 00 00 00 00 00 
-->Received Button/Knob 0 state : 0
Decrypted Response: F7 04 FB 02 FF 07 F7 02 00 00 00 FA 03 00 00 00 00 00 00 00 00 00 00 00 00 00 00 00 00 00 00 00 00 00 00 00 00 00 00 00 00 8D B6 25 FD FF FF 01 00 00 00 00 00 00 00 00 00 00 00 00 00 00 00 00 00 00 00 00 00 00 00 00 00 00 00 00 00 00 00 00 00 00 00 00 00 00 00 00 00 00 00 00 00 00 00 00 00 00 00 00 00 00 00 00 00 00 00 00 00 00 00 00 00 00 00 00 00 00 00 00 
Raw Response and len 116: 00 00 00 00 00 00 00 00 00 00 00 00 00 00 00 00 00 00 00 00 00 00 00 00 00 00 00 00 00 00 00 00 00 00 00 00 00 00 00 00 00 00 00 00 00 00 00 00 00 00 00 00 00 00 00 00 00 00 00 00 00 00 00 00 00 00 00 00 00 00 00 00 00 00 00 00 00 00 00 00 00 00 00 00 00 00 00 00 00 00 00 00 00 00 00 00 00 00 00 00 00 00 00 00 00 00 00 00 00 00 00 00 00 00 00 00 
-->Received Button/Knob 0 state : 0
Decrypted Response: F7 04 FB 02 FF 07 F7 02 00 00 00 FA 03 00 00 00 00 00 00 00 00 00 00 00 00 00 00 00 00 00 00 00 00 00 00 00 00 00 00 00 00 00 00 00 00 00 00 00 00 00 00 00 00 00 00 00 00 00 00 00 00 00 00 00 00 00 00 00 00 00 00 00 00 00 00 00 00 00 00 00 00 00 00 00 00 00 00 00 00 00 00 00 00 00 00 00 00 00 00 00 00 00 00 00 00 00 00 00 00 00 00 00 00 00 00 00 
Raw Response and len 120: 00 00 00 00 00 00 00 00 00 00 00 00 00 00 00 00 00 00 00 00 00 00 00 00 00 00 00 00 00 00 00 00 00 00 00 00 00 00 00 00 00 00 00 00 00 00 00 00 00 00 00 00 00 00 00 00 00 00 00 00 00 00 00 00 00 00 00 00 00 00 00 00 00 00 00 00 00 00 00 00 00 00 00 00 00 00 00 00 00 00 00 00 00 00 00 00 00 00 00 00 00 00 00 00 00 00 00 00 00 00 00 00 00 00 00 00 00 00 00 00 
-->Received Button/Knob 0 state : 0
Decrypted Response: F7 04 FB 02 FF 07 F7 02 00 00 00 FA 03 00 00 00 00 00 00 00 00 00 00 00 00 00 00 00 00 00 00 00 00 00 00 00 00 00 00 00 00 00 00 00 00 00 00 00 00 00 00 00 00 00 00 00 00 00 00 00 00 00 00 00 00 00 00 00 00 00 00 00 00 00 00 00 00 00 00 00 00 00 00 00 00 00 00 00 00 00 00 00 00 00 00 00 00 00 00 00 00 00 00 00 00 00 00 00 00 00 00 00 00 00 00 00 00 00 00 00 
Raw Response and len 120: 00 00 00 00 00 00 00 00 00 00 00 00 00 00 00 00 00 00 00 00 00 00 00 00 00 00 00 00 00 00 00 00 00 00 00 00 00 00 00 00 00 00 00 00 00 00 00 00 00 00 00 00 00 00 00 00 00 00 00 00 00 00 00 00 00 00 00 00 00 00 00 00 00 00 00 00 00 00 00 8D FE 95 55 08 00 00 00 00 00 00 00 00 00 00 00 00 00 00 00 00 00 00 00 00 00 00 00 00 00 00 00 00 00 00 00 00 00 00 00 00 
-->Received Button/Knob 0 state : 0
Decrypted Response: F7 04 FB 02 FF 07 F7 02 00 00 00 FA 03 00 00 00 00 00 00 00 00 00 00 00 00 00 00 00 00 00 00 00 00 00 00 00 00 00 00 00 00 00 00 00 00 00 00 00 00 00 00 00 00 00 00 00 00 00 00 00 00 00 00 00 00 00 00 00 00 00 00 00 00 00 00 00 00 00 00 8D FE 95 55 08 00 00 00 00 00 00 00 00 00 00 00 00 00 00 00 00 00 00 00 00 00 00 00 00 00 00 00 00 00 00 00 00 00 00 00 00 
Raw Response and len 120: 00 00 00 00 00 00 00 00 00 00 00 00 00 00 00 00 00 00 00 00 00 00 00 00 00 00 00 00 00 00 00 00 00 00 00 00 00 00 00 00 00 00 00 00 00 00 00 00 00 00 00 00 00 00 00 00 00 00 00 00 00 00 00 00 00 00 00 00 00 00 00 00 00 00 00 00 00 00 00 00 00 00 00 00 00 00 00 00 00 00 00 00 00 00 00 00 00 00 00 00 00 00 00 00 00 00 00 00 00 00 00 00 00 00 00 00 00 00 00 00 
-->Received Button/Knob 0 state : 0
Decrypted Response: F7 04 FB 02 FF 07 F7 02 00 00 00 FA 03 00 00 00 00 00 00 00 00 00 00 00 00 00 00 00 00 00 00 00 00 00 00 00 00 00 00 00 00 00 00 00 00 00 00 00 00 00 00 00 00 00 00 00 00 00 00 00 00 00 00 00 00 00 00 00 00 00 00 00 00 00 00 00 00 00 00 00 00 00 00 00 00 00 00 00 00 00 00 00 00 00 00 00 00 00 00 00 00 00 00 00 00 00 00 00 00 00 00 00 00 00 00 00 00 00 00 00 
Raw Response and len 120: 00 00 00 00 00 00 00 00 00 00 00 00 00 00 00 00 00 00 00 00 00 00 00 00 00 00 00 00 00 00 00 00 00 00 00 00 00 00 00 00 00 00 00 00 00 00 00 00 00 00 00 00 00 00 00 00 00 00 00 00 00 00 00 00 00 00 00 00 00 00 00 00 00 00 00 00 00 00 00 00 00 00 00 00 00 00 00 00 00 00 00 00 00 00 00 00 00 00 00 00 00 00 00 00 00 00 00 00 00 00 00 00 00 00 00 00 00 00 00 00 
-->Received Button/Knob 0 state : 0
Decrypted Response: F7 04 FB 02 FF 07 F7 02 00 00 00 FA 03 00 00 00 00 00 00 00 00 00 00 00 00 00 00 00 00 00 00 00 00 00 00 00 00 00 00 00 00 00 00 00 00 00 00 00 00 00 00 00 00 00 00 00 00 00 00 00 00 00 00 00 00 00 00 00 00 00 00 00 00 00 00 00 00 00 00 00 00 00 00 00 00 00 00 00 00 00 00 00 00 00 00 00 00 00 00 00 00 00 00 00 00 00 00 00 00 00 00 00 00 00 00 00 00 00 00 00 
Raw Response and len 120: 00 00 00 00 00 00 00 00 00 00 00 00 00 00 00 00 00 00 00 00 00 00 00 00 00 00 00 00 00 00 00 00 00 00 00 00 00 00 00 00 00 00 00 00 00 00 00 00 00 00 00 00 00 00 00 00 00 00 00 00 00 00 00 00 00 00 00 00 00 00 00 00 00 00 00 00 00 00 00 00 00 00 00 00 00 00 00 00 00 00 00 00 00 00 00 00 00 00 00 00 00 00 00 00 00 00 00 00 00 00 00 00 00 00 00 00 00 00 00 00 
-->Received Button/Knob 0 state : 0
Decrypted Response: F7 04 FB 02 FF 07 F7 02 00 00 00 FA 03 00 00 00 00 00 00 00 00 00 00 00 00 00 00 00 00 00 00 00 00 00 00 00 00 00 00 00 00 00 00 00 00 00 00 00 00 00 00 00 00 00 00 00 00 00 00 00 00 00 00 00 00 00 00 00 00 00 00 00 00 00 00 00 00 00 00 00 00 00 00 00 00 00 00 00 00 00 00 00 00 00 00 00 00 00 00 00 00 00 00 00 00 00 00 00 00 00 00 00 00 00 00 00 00 00 00 00 
Raw Response and len 120: 00 00 00 00 00 00 00 00 00 00 00 00 00 00 00 00 00 00 00 00 00 00 00 00 00 00 00 00 00 00 00 00 00 00 00 00 00 00 00 00 00 00 00 00 00 00 00 00 00 00 00 00 00 00 00 00 00 00 00 00 00 00 00 00 00 00 00 00 00 00 00 00 00 00 00 00 00 00 00 00 00 00 00 00 00 00 00 00 00 00 00 00 00 00 00 00 00 00 00 00 00 00 00 00 00 00 00 00 00 00 00 00 00 00 00 00 00 00 00 00 
-->Received Button/Knob 0 state : 0
Decrypted Response: F7 04 FB 02 FF 07 F7 02 00 00 00 FA 03 00 00 00 00 00 00 00 00 00 00 00 00 00 00 00 00 00 00 00 00 00 00 00 00 00 00 00 00 00 00 00 00 00 00 00 00 00 00 00 00 00 00 00 00 00 00 00 00 00 00 00 00 00 00 00 00 00 00 00 00 00 00 00 00 00 00 00 00 00 00 00 00 00 00 00 00 00 00 00 00 00 00 00 00 00 00 00 00 00 00 00 00 00 00 00 00 00 00 00 00 00 00 00 00 00 00 00 
Raw Response and len 120: 00 00 00 00 00 00 00 00 00 00 00 00 00 00 00 00 00 00 00 00 00 00 00 00 00 00 00 00 00 00 00 00 00 00 00 00 00 00 00 00 00 00 00 00 00 00 00 00 00 00 00 00 00 00 00 00 00 00 00 00 00 00 00 00 00 00 00 00 00 00 00 00 00 00 00 00 00 00 00 00 00 00 00 00 00 00 00 00 00 00 00 00 00 00 00 00 00 00 00 00 00 00 00 00 00 00 00 00 00 00 00 00 00 00 00 00 00 00 00 00 
-->Received Button/Knob 0 state : 0
Decrypted Response: F7 04 FB 02 FF 07 F7 02 00 00 00 FA 03 00 00 00 00 00 00 00 00 00 00 00 00 00 00 00 00 00 00 00 00 00 00 00 00 00 00 00 00 00 00 00 00 00 00 00 00 00 00 00 00 00 00 00 00 00 00 00 00 00 00 00 00 00 00 00 00 00 00 00 00 00 00 00 00 00 00 00 00 00 00 00 00 00 00 00 00 00 00 00 00 00 00 00 00 00 00 00 00 00 00 00 00 00 00 00 00 00 00 00 00 00 00 00 00 00 00 00 
Raw Response and len 120: 00 00 00 00 00 00 00 00 00 00 00 00 00 00 00 00 00 00 00 00 00 00 00 00 00 00 00 00 00 00 00 00 00 00 00 00 00 00 00 00 00 00 00 00 00 00 00 00 00 00 00 00 00 00 00 00 00 00 00 00 00 00 00 00 00 00 00 00 00 00 00 00 00 00 00 00 00 00 00 00 00 00 00 00 00 00 00 00 00 00 00 00 00 00 00 00 00 00 00 00 00 00 00 00 00 00 00 00 00 00 00 00 00 00 00 00 00 00 00 00 
-->Received Button/Knob 0 state : 0
Decrypted Response: F7 04 FB 02 FF 07 F7 02 00 00 00 FA 03 00 00 00 00 00 00 00 00 00 00 00 00 00 00 00 00 00 00 00 00 00 00 00 00 00 00 00 00 00 00 00 00 00 00 00 00 00 00 00 00 00 00 00 00 00 00 00 00 00 00 00 00 00 00 00 00 00 00 00 00 00 00 00 00 00 00 00 00 00 00 00 00 00 00 00 00 00 00 00 00 00 00 00 00 00 00 00 00 00 00 00 00 00 00 00 00 00 00 00 00 00 00 00 00 00 00 00 
Raw Response and len 120: 00 00 00 00 00 00 00 00 00 00 00 00 00 00 00 00 00 00 00 00 00 00 00 00 00 00 00 00 00 00 00 00 00 00 00 00 00 00 00 00 00 00 00 00 00 00 00 00 00 00 00 00 00 00 00 00 00 00 00 00 00 00 00 00 00 00 00 00 00 00 00 00 00 00 00 00 00 00 00 00 00 00 00 00 00 00 00 00 00 00 00 00 00 00 00 00 00 00 00 00 00 00 00 00 00 00 00 00 00 00 00 00 00 00 00 00 00 00 00 00 
-->Received Button/Knob 0 state : 0
Decrypted Response: F7 04 FB 02 FF 07 F7 02 00 00 00 FA 03 00 00 00 00 00 00 00 00 00 00 00 00 00 00 00 00 00 00 00 00 00 00 00 00 00 00 00 00 00 00 00 00 00 00 00 00 00 00 00 00 00 00 00 00 00 00 00 00 00 00 00 00 00 00 00 00 00 00 00 00 00 00 00 00 00 00 00 00 00 00 00 00 00 00 00 00 00 00 00 00 00 00 00 00 00 00 00 00 00 00 00 00 00 00 00 00 00 00 00 00 00 00 00 00 00 00 00 
Raw Response and len 71: 00 00 00 00 00 00 00 00 00 00 00 00 00 00 00 00 00 00 00 00 00 00 00 00 00 00 00 00 00 00 00 00 00 00 00 00 00 00 00 00 00 00 00 00 00 00 00 00 00 00 00 00 00 00 00 00 00 00 00 00 00 00 00 00 00 00 00 00 00 00 00 
-->Received Button/Knob 0 state : 0
Decrypted Response: F7 04 FB 02 FF 07 F7 02 00 00 00 FA 03 00 00 00 00 00 00 00 00 00 00 00 00 00 00 00 00 00 00 00 00 00 00 00 00 00 00 00 00 00 00 00 00 00 00 00 00 00 00 00 00 00 00 00 00 00 00 00 00 00 00 00 00 00 00 00 00 00 00 
Raw Response and len 22: 00 00 00 00 00 00 00 00 00 00 00 00 00 00 00 00 00 00 00 00 00 00 
-->Received Button/Knob 0 state : 0
Decrypted Response: F7 04 FB 02 FF 07 F7 02 00 00 00 FA 03 00 00 00 00 00 00 00 00 00 
Raw Response and len 50: 00 00 00 00 00 00 00 00 00 00 00 00 00 00 00 00 00 00 00 00 00 00 00 00 00 00 00 00 00 00 00 00 00 00 00 00 00 00 00 00 00 00 00 00 00 00 00 00 00 00 
-->Received Button/Knob 0 state : 0
Decrypted Response: F7 04 FB 02 FF 07 F7 02 00 00 00 FA 03 00 00 00 00 00 00 00 00 00 00 00 00 00 00 00 00 00 00 00 00 00 00 00 00 00 00 00 00 00 00 00 00 00 00 00 00 00 
Raw Response and len 2: 00 00 
Decrypted Response: 00 00 
Raw Response and len 77: 00 00 00 00 00 00 00 00 00 00 00 00 00 00 00 00 00 00 00 00 00 00 00 00 00 00 00 00 00 00 00 00 00 00 00 00 00 00 00 00 00 00 00 00 00 00 00 00 00 00 00 00 00 00 00 00 00 00 00 00 00 00 00 00 00 00 00 00 00 00 00 00 00 00 00 00 00 
-->Received Button/Knob 0 state : 0
Decrypted Response: F7 04 FB 02 FF 07 F7 02 00 00 00 FA 03 00 00 00 00 00 00 00 00 00 00 00 00 00 00 00 00 00 00 00 00 00 00 00 00 00 00 00 00 00 00 00 00 00 00 00 00 00 00 00 00 00 00 00 00 00 00 00 00 00 00 00 00 00 00 00 00 00 00 00 00 00 00 00 00 
Raw Response and len 12: 00 00 00 00 00 00 00 00 00 00 00 00 
Decrypted Response: 00 00 00 00 00 00 00 00 00 00 00 00 
Raw Response and len 10: 00 00 00 00 00 00 00 00 00 00 
Decrypted Response: 00 00 00 00 00 00 00 00 00 00 
Raw Response and len 4: 00 00 00 00 
Decrypted Response: 00 00 00 00 
Raw Response and len 27: 00 00 00 00 00 00 00 00 00 00 00 00 00 00 00 00 00 00 00 00 00 00 00 00 00 00 00 
-->Received Button/Knob 0 state : 0
Decrypted Response: F7 04 FB 02 FF 07 F7 02 00 00 00 FA 03 00 00 00 00 00 00 00 00 00 00 00 00 00 00 
Raw Response and len 4: 00 00 00 00 
Decrypted Response: 00 00 00 00 
Raw Response and len 2: 00 00 
Decrypted Response: 00 00 
Raw Response and len 4: 00 00 00 00 
Decrypted Response: 00 00 00 00 
Raw Response and len 11: 00 00 00 00 00 00 00 00 00 00 00 
Decrypted Response: 00 00 00 00 00 00 00 00 00 00 00 
Raw Response and len 17: 00 00 00 00 00 00 00 00 00 00 00 00 00 00 00 00 00 
-->Received Button/Knob 0 state : 0
Decrypted Response: F7 04 FB 02 FF 07 F7 02 00 00 00 FA 03 00 00 00 00 
Raw Response and len 1: 00 
Decrypted Response: 00 
Raw Response and len 14: 00 00 00 00 FF 00 00 00 00 00 00 00 00 00 
-->Received Button/Knob 0 state : 0
Decrypted Response: F7 04 FB 02 FE 07 F7 02 00 00 00 FA 03 00 
Raw Response and len 12: 00 00 00 00 00 FF 00 00 00 00 00 00 
Decrypted Response: 00 00 00 00 00 FF 00 00 00 00 00 00 
Raw Response and len 5: 00 00 00 00 00 
Decrypted Response: 00 00 00 00 00 
Raw Response and len 1: 00 
Decrypted Response: 00 
Raw Response and len 15: 00 00 00 00 FF 00 00 00 00 00 FF 00 FF 00 00 
-->Received Button/Knob 0 state : 135
Decrypted Response: F7 04 FB 02 FE 07 F7 02 00 00 87 FA 02 00 00 
Raw Response and len 5: 00 00 00 00 00 
Decrypted Response: 00 00 00 00 00 
Raw Response and len 1: 00 
Decrypted Response: 00 
Raw Response and len 3: 00 FF 00 
Decrypted Response: 00 FF 00 
Raw Response and len 1: 00 
Decrypted Response: 00 
Raw Response and len 1: 00 
Decrypted Response: 00 
Raw Response and len 13: 00 FF 00 00 FF 00 FF 00 00 FF 00 00 00 
-->Received Button/Knob 255 state : 0
Decrypted Response: F7 03 FB 02 FE 07 F6 02 00 FF 00 FA 03 
Processed Response: -0-F7 -1-03 -2-FB -3-02 -4-FE -5-07 -6-F6 -7-02 -8-00 -9-FF -10-00 -11-FA -12-03 

CRC Calculated: 8F 54

--CRC is not in correct Format--
Raw Response and len 2: 00 FF 
Decrypted Response: 00 FF 
Raw Response and len 2: 00 00 
Decrypted Response: 00 00 
Raw Response and len 2: 00 00 
Decrypted Response: 00 00 
Raw Response and len 1: 00 
Decrypted Response: 00 
Raw Response and len 1: 00 
Decrypted Response: 00 
Raw Response and len 1: 00 
Decrypted Response: 00 
Raw Response and len 1: 00 
Decrypted Response: 00 
Raw Response and len 2: 00 00 
Decrypted Response: 00 00 
Raw Response and len 9: 00 00 FF 00 00 00 00 00 FF 
Decrypted Response: 00 00 FF 00 00 00 00 00 FF 
Raw Response and len 5: 00 FF 00 FF 00 
Decrypted Response: 00 FF 00 FF 00 
Raw Response and len 1: 00 
Decrypted Response: 00 
Raw Response and len 3: 00 FF 00 
Decrypted Response: 00 FF 00 
Raw Response and len 5: 00 FF 00 FF 00 
Decrypted Response: 00 FF 00 FF 00 
Raw Response and len 1: 00 
Decrypted Response: 00 
Raw Response and len 6: 00 FF 00 FF 00 FF 
Decrypted Response: 00 FF 00 FF 00 FF 
Raw Response and len 1: 00 
Decrypted Response: 00 
Raw Response and len 3: 00 FF 00 
Decrypted Response: 00 FF 00 
Raw Response and len 14: 00 FF 00 FF 00 00 FF 00 00 00 FF 00 FF 00 
-->Received Button/Knob 0 state : 135
Decrypted Response: F7 03 FB 01 FF 07 F6 02 00 00 87 FA 02 00 
Raw Response and len 2: 00 FF 
Decrypted Response: 00 FF 
Raw Response and len 1: 00 
Decrypted Response: 00 
Raw Response and len 2: 00 FF 
Decrypted Response: 00 FF 
Raw Response and len 2: 00 FF 
Decrypted Response: 00 FF 
Raw Response and len 2: 00 00 
Decrypted Response: 00 00 
Raw Response and len 4: 00 FF 00 00 
Decrypted Response: 00 FF 00 00 
Raw Response and len 8: 00 FF 00 FF 00 00 FF 00 
Decrypted Response: 00 FF 00 FF 00 00 FF 00 
Raw Response and len 3: 00 00 FF 
Decrypted Response: 00 00 FF 
Raw Response and len 2: 00 FF 
Decrypted Response: 00 FF 
Raw Response and len 2: 00 FF 
Decrypted Response: 00 FF 
Raw Response and len 2: 00 FF 
Decrypted Response: 00 FF 
Raw Response and len 2: 00 00 
Decrypted Response: 00 00 
Raw Response and len 4: 00 00 00 00 
Decrypted Response: 00 00 00 00 
Raw Response and len 6: 00 00 00 FF 00 00 
Decrypted Response: 00 00 00 FF 00 00 
Raw Response and len 7: 00 00 00 00 FF 00 00 
Decrypted Response: 00 00 00 00 FF 00 00 
Raw Response and len 1: 00 
Decrypted Response: 00 
Raw Response and len 1: 00 
Decrypted Response: 00 
Raw Response and len 1: 00 
Decrypted Response: 00 
Raw Response and len 6: 00 FF 00 FF 00 FF 
Decrypted Response: 00 FF 00 FF 00 FF 
Raw Response and len 4: 00 00 FF 00 
Decrypted Response: 00 00 FF 00 
Raw Response and len 8: 00 FF 00 00 FF 00 00 00 
Decrypted Response: 00 FF 00 00 FF 00 00 00 
Raw Response and len 4: 00 00 00 00 
Decrypted Response: 00 00 00 00 
Raw Response and len 2: 00 00 
Decrypted Response: 00 00 
Raw Response and len 1: 00 
Decrypted Response: 00 
Raw Response and len 1: 00 
Decrypted Response: 00 
Raw Response and len 2: 00 00 
Decrypted Response: 00 00 
Raw Response and len 2: 00 00 
Decrypted Response: 00 00 
Raw Response and len 1: 00 
Decrypted Response: 00 
Raw Response and len 2: 00 00 
Decrypted Response: 00 00 
Raw Response and len 8: 00 00 00 00 00 00 00 00 
Decrypted Response: 00 00 00 00 00 00 00 00 
Raw Response and len 1: 00 
Decrypted Response: 00 
Raw Response and len 5: 00 FF 00 FF 00 
Decrypted Response: 00 FF 00 FF 00 
Raw Response and len 2: 00 00 
Decrypted Response: 00 00 
Raw Response and len 7: 00 00 FF 00 00 00 00 
Decrypted Response: 00 00 FF 00 00 00 00 
Raw Response and len 5: 00 00 00 FF 00 
Decrypted Response: 00 00 00 FF 00 
Raw Response and len 2: 00 00 
Decrypted Response: 00 00 
Raw Response and len 2: 00 00 
Decrypted Response: 00 00 
Raw Response and len 1: 00 
Decrypted Response: 00 
Raw Response and len 3: 00 00 00 
Decrypted Response: 00 00 00 
Raw Response and len 1: 00 
Decrypted Response: 00 
Raw Response and len 6: 00 00 00 00 00 00 
Decrypted Response: 00 00 00 00 00 00 
Raw Response and len 8: 00 00 00 00 00 00 00 00 
Decrypted Response: 00 00 00 00 00 00 00 00 
Raw Response and len 2: 00 00 
Decrypted Response: 00 00 
Raw Response and len 6: 00 00 00 FF 00 00 
Decrypted Response: 00 00 00 FF 00 00 
Raw Response and len 29: 00 FF 00 FF 00 FF 00 FF 00 00 00 00 00 FF 00 FF 00 00 00 00 00 00 FF 00 FF 00 00 FF 00 
-->Received Button/Knob 0 state : 0
Decrypted Response: F7 03 FB 01 FF 06 F7 01 00 00 00 FA 03 FF 00 FF 00 00 00 00 00 00 FF 00 FF 00 00 FF 00 
Raw Response and len 1: 00 
Decrypted Response: 00 
Raw Response and len 2: 00 FF 
Decrypted Response: 00 FF 
Raw Response and len 7: 00 00 00 FF 00 00 FF 
Decrypted Response: 00 00 00 FF 00 00 FF 
Raw Response and len 24: 00 00 FF 00 00 00 FF 00 FF 00 FF 00 FF 00 FF 00 00 FF 00 00 FF 00 FF 00 
-->Received Button/Knob 0 state : 135
Decrypted Response: F7 04 FA 02 FF 07 F6 02 FF 00 87 FA 02 00 FF 00 00 FF 00 00 FF 00 FF 00 
Raw Response and len 2: 00 00 
Decrypted Response: 00 00 
Raw Response and len 2: 00 FF 
Decrypted Response: 00 FF 
Raw Response and len 2: 00 FF 
Decrypted Response: 00 FF 
Raw Response and len 3: 04 FF 00 
Decrypted Response: 04 FF 00 
Raw Response and len 2: 00 00 
Decrypted Response: 00 00 
Raw Response and len 4: 00 00 00 FF 
Decrypted Response: 00 00 00 FF 
Raw Response and len 1: 00 
Decrypted Response: 00 
Raw Response and len 5: 00 00 00 00 00 
Decrypted Response: 00 00 00 00 00 
Raw Response and len 4: 00 00 00 FF 
Decrypted Response: 00 00 00 FF 
Raw Response and len 4: 00 FF 00 FF 
Decrypted Response: 00 FF 00 FF 
Raw Response and len 6: 00 00 00 FF 00 FF 
Decrypted Response: 00 00 00 FF 00 FF 
Raw Response and len 5: 00 00 00 FF 00 
Decrypted Response: 00 00 00 FF 00 
Raw Response and len 3: 00 00 FF 
Decrypted Response: 00 00 FF 
Raw Response and len 2: 00 FF 
Decrypted Response: 00 FF 
Raw Response and len 1: 00 
Decrypted Response: 00 
Raw Response and len 2: 00 FF 
Decrypted Response: 00 FF 
Raw Response and len 2: 00 FF 
Decrypted Response: 00 FF 
Raw Response and len 2: 00 FF 
Decrypted Response: 00 FF 
Raw Response and len 2: 00 FF 
Decrypted Response: 00 FF 
Raw Response and len 2: 00 FF 
Decrypted Response: 00 FF 
Raw Response and len 1: 00 
Decrypted Response: 00 
Raw Response and len 1: 00 
Decrypted Response: 00 
Raw Response and len 2: 00 FF 
Decrypted Response: 00 FF 
Raw Response and len 2: 00 FF 
Decrypted Response: 00 FF 
Raw Response and len 2: 00 FF 
Decrypted Response: 00 FF 
Raw Response and len 2: 00 FF 
Decrypted Response: 00 FF 
Raw Response and len 1: 00 
Decrypted Response: 00 
Raw Response and len 2: 00 FF 
Decrypted Response: 00 FF 
Raw Response and len 8: 00 00 FF 00 00 00 00 00 
Decrypted Response: 00 00 FF 00 00 00 00 00 
Raw Response and len 3: 00 00 00 
Decrypted Response: 00 00 00 
Raw Response and len 8: 00 00 00 00 00 00 00 00 
Decrypted Response: 00 00 00 00 00 00 00 00 
Raw Response and len 1: 00 
Decrypted Response: 00 
Raw Response and len 3: 00 00 00 
Decrypted Response: 00 00 00 
Raw Response and len 1: 00 
Decrypted Response: 00 
Raw Response and len 1: 00 
Decrypted Response: 00 
Raw Response and len 7: 00 FE 00 00 00 00 FF 
Decrypted Response: 00 FE 00 00 00 00 FF 
Raw Response and len 1: 00 
Decrypted Response: 00 
Raw Response and len 5: 00 00 FF 00 FF 
Decrypted Response: 00 00 FF 00 FF 
Raw Response and len 2: 00 00 
Decrypted Response: 00 00 
Raw Response and len 1: 00 
Decrypted Response: 00 
Raw Response and len 6: 00 00 FF 00 00 FF 
Decrypted Response: 00 00 FF 00 00 FF 
Raw Response and len 1: 00 
Decrypted Response: 00 
Raw Response and len 7: 00 FF 00 FE 00 01 FF 
Decrypted Response: 00 FF 00 FE 00 01 FF 
Raw Response and len 7: 00 FE 00 00 00 00 FE 
Decrypted Response: 00 FE 00 00 00 00 FE 
Raw Response and len 2: 00 FF 
Decrypted Response: 00 FF 
Raw Response and len 5: 00 00 00 00 00 
Decrypted Response: 00 00 00 00 00 
Raw Response and len 11: 00 00 00 00 FF 00 00 00 FF 00 FF 
Decrypted Response: 00 00 00 00 FF 00 00 00 FF 00 FF 
Raw Response and len 2: 00 00 
Decrypted Response: 00 00 
Raw Response and len 3: 00 00 00 
Decrypted Response: 00 00 00 
Raw Response and len 2: 00 FF 
Decrypted Response: 00 FF 
Raw Response and len 2: 00 FF 
Decrypted Response: 00 FF 
Raw Response and len 2: 00 FF 
Decrypted Response: 00 FF 
Raw Response and len 2: 00 FF 
Decrypted Response: 00 FF 
Raw Response and len 2: 00 FF 
Decrypted Response: 00 FF 
Raw Response and len 4: 00 00 00 FF 
Decrypted Response: 00 00 00 FF 
Raw Response and len 4: 00 FF 00 FF 
Decrypted Response: 00 FF 00 FF 
Raw Response and len 2: 00 FF 
Decrypted Response: 00 FF 
Raw Response and len 2: 00 FF 
Decrypted Response: 00 FF 
Raw Response and len 5: 00 00 00 00 00 
Decrypted Response: 00 00 00 00 00 
Raw Response and len 2: 00 FF 
Decrypted Response: 00 FF 
Raw Response and len 3: 00 00 00 
Decrypted Response: 00 00 00 
Raw Response and len 4: 00 00 00 FF 
Decrypted Response: 00 00 00 FF 
Raw Response and len 2: 00 FF 
Decrypted Response: 00 FF 
Raw Response and len 4: 00 00 00 FF 
Decrypted Response: 00 00 00 FF 
Raw Response and len 2: 00 FF 
Decrypted Response: 00 FF 
Raw Response and len 2: 00 FF 
Decrypted Response: 00 FF 
Raw Response and len 4: 00 FF 00 FF 
Decrypted Response: 00 FF 00 FF 
Raw Response and len 1: 00 
Decrypted Response: 00 
Raw Response and len 4: 00 00 00 FF 
Decrypted Response: 00 00 00 FF 
Raw Response and len 7: 00 00 00 00 00 00 FF 
Decrypted Response: 00 00 00 00 00 00 FF 
Raw Response and len 2: 00 00 
Decrypted Response: 00 00 
Raw Response and len 3: 00 00 FF 
Decrypted Response: 00 00 FF 
Raw Response and len 2: 00 FF 
Decrypted Response: 00 FF 
Raw Response and len 2: 00 FF 
Decrypted Response: 00 FF 
Raw Response and len 2: 00 FF 
Decrypted Response: 00 FF 
Raw Response and len 1: 00 
Decrypted Response: 00 
Raw Response and len 1: 00 
Decrypted Response: 00 
Raw Response and len 1: 00 
Decrypted Response: 00 
Raw Response and len 1: 00 
Decrypted Response: 00 
Raw Response and len 2: 00 FF 
Decrypted Response: 00 FF 
Raw Response and len 4: 04 00 00 FF 
Decrypted Response: 04 00 00 FF 
Raw Response and len 1: 00 
Decrypted Response: 00 
Raw Response and len 1: 00 
Decrypted Response: 00 
Raw Response and len 1: 00 
Decrypted Response: 00 
Raw Response and len 1: 00 
Decrypted Response: 00 
Raw Response and len 2: 00 FF 
Decrypted Response: 00 FF 
Raw Response and len 1: 00 
Decrypted Response: 00 
Raw Response and len 1: 00 
Decrypted Response: 00 
Raw Response and len 2: 00 FF 
Decrypted Response: 00 FF 
Raw Response and len 2: 00 FF 
Decrypted Response: 00 FF 
Raw Response and len 2: 00 FF 
Decrypted Response: 00 FF 
Raw Response and len 1: 00 
Decrypted Response: 00 
Raw Response and len 1: 00 
Decrypted Response: 00 
Raw Response and len 2: 00 FF 
Decrypted Response: 00 FF 
Raw Response and len 2: 00 FE 
Decrypted Response: 00 FE 
Raw Response and len 2: 00 FF 
Decrypted Response: 00 FF 
Raw Response and len 1: 00 
Decrypted Response: 00 
Raw Response and len 1: 00 
Decrypted Response: 00 
Raw Response and len 3: 00 00 FF 
Decrypted Response: 00 00 FF 
Raw Response and len 1: 00 
Decrypted Response: 00 
Raw Response and len 2: 00 FF 
Decrypted Response: 00 FF 
Raw Response and len 2: 00 FF 
Decrypted Response: 00 FF 
Raw Response and len 2: 00 FF 
Decrypted Response: 00 FF 
Raw Response and len 1: 00 
Decrypted Response: 00 
Raw Response and len 1: 00 
Decrypted Response: 00 
Raw Response and len 3: 00 10 FF 
Decrypted Response: 00 10 FF 
Raw Response and len 2: 00 FF 
Decrypted Response: 00 FF 
Raw Response and len 2: E0 81 
Decrypted Response: E0 81 
Raw Response and len 2: 00 FF 
Decrypted Response: 00 FF 
Raw Response and len 1: 00 
Decrypted Response: 00 
Raw Response and len 2: 00 FF 
Decrypted Response: 00 FF 
Raw Response and len 2: 00 FF 
Decrypted Response: 00 FF 
Raw Response and len 2: 00 FF 
Decrypted Response: 00 FF 
Raw Response and len 2: 00 FE 
Decrypted Response: 00 FE 
Raw Response and len 3: 00 00 FE 
Decrypted Response: 00 00 FE 
Raw Response and len 2: C0 E0 
Decrypted Response: C0 E0 
Raw Response and len 7: 00 00 00 00 E0 00 FF 
Decrypted Response: 00 00 00 00 E0 00 FF 
Raw Response and len 1: 00 
Decrypted Response: 00 
Raw Response and len 2: 00 00 
Decrypted Response: 00 00 
Raw Response and len 3: 00 00 E0 
Decrypted Response: 00 00 E0 
Raw Response and len 2: 00 00 
Decrypted Response: 00 00 
Raw Response and len 2: 00 E0 
Decrypted Response: 00 E0 
Raw Response and len 2: 00 00 
Decrypted Response: 00 00 
Raw Response and len 1: 00 
Decrypted Response: 00 
Raw Response and len 1: 00 
Decrypted Response: 00 
Raw Response and len 1: 00 
Decrypted Response: 00 
Raw Response and len 1: 00 
Decrypted Response: 00 
Raw Response and len 2: 00 FF 
Decrypted Response: 00 FF 
Raw Response and len 1: 00 
Decrypted Response: 00 
Raw Response and len 1: 00 
Decrypted Response: 00 
Raw Response and len 1: 00 
Decrypted Response: 00 
Raw Response and len 1: 00 
Decrypted Response: 00 
Raw Response and len 1: 00 
Decrypted Response: 00 
Raw Response and len 2: 00 FF 
Decrypted Response: 00 FF 
Raw Response and len 1: 00 
Decrypted Response: 00 
Raw Response and len 1: 00 
Decrypted Response: 00 
Raw Response and len 1: 00 
Decrypted Response: 00 
Raw Response and len 4: 00 00 00 E0 
Decrypted Response: 00 00 00 E0 
Raw Response and len 2: 00 C0 
Decrypted Response: 00 C0 
Raw Response and len 2: 00 00 
Decrypted Response: 00 00 
Raw Response and len 3: 00 00 FF 
Decrypted Response: 00 00 FF 
Raw Response and len 3: 00 00 FE 
Decrypted Response: 00 00 FE 
Raw Response and len 4: 00 00 00 F8 
Decrypted Response: 00 00 00 F8 
Raw Response and len 3: 00 00 00 
Decrypted Response: 00 00 00 
Raw Response and len 3: 00 00 F8 
Decrypted Response: 00 00 F8 
Raw Response and len 4: 00 00 00 FE 
Decrypted Response: 00 00 00 FE 
Raw Response and len 3: 00 04 E0 
Decrypted Response: 00 04 E0 
Raw Response and len 3: 00 00 E0 
Decrypted Response: 00 00 E0 
Raw Response and len 3: 00 00 80 
Decrypted Response: 00 00 80 
Raw Response and len 2: 00 00 
Decrypted Response: 00 00 
Raw Response and len 4: 00 00 00 F8 
Decrypted Response: 00 00 00 F8 
Raw Response and len 5: 00 00 00 00 F8 
Decrypted Response: 00 00 00 00 F8 
Raw Response and len 4: 00 00 00 FF 
Decrypted Response: 00 00 00 FF 
Raw Response and len 2: 00 FE 
Decrypted Response: 00 FE 
Raw Response and len 4: 00 00 00 F8 
Decrypted Response: 00 00 00 F8 
Raw Response and len 3: 00 00 FF 
Decrypted Response: 00 00 FF 
Raw Response and len 4: 00 00 00 FE 
Decrypted Response: 00 00 00 FE 
Raw Response and len 2: 00 F8 
Decrypted Response: 00 F8 
Raw Response and len 3: 87 80 FF 
Decrypted Response: 87 80 FF 
Raw Response and len 4: 00 00 00 00 
Decrypted Response: 00 00 00 00 
Raw Response and len 5: 00 00 00 00 F8 
Decrypted Response: 00 00 00 00 F8 
Raw Response and len 1: 00 
Decrypted Response: 00 
Raw Response and len 4: 00 FF 00 00 
Decrypted Response: 00 FF 00 00 
Raw Response and len 2: 00 FF 
Decrypted Response: 00 FF 
Raw Response and len 2: 00 FC 
Decrypted Response: 00 FC 
Raw Response and len 2: 00 FF 
Decrypted Response: 00 FF 
Raw Response and len 2: 00 FC 
Decrypted Response: 00 FC 
Raw Response and len 2: 00 FF 
Decrypted Response: 00 FF 
Raw Response and len 2: 00 FC 
Decrypted Response: 00 FC 
Raw Response and len 1: 00 
Decrypted Response: 00 
Raw Response and len 2: 00 FC 
Decrypted Response: 00 FC 
Raw Response and len 2: 00 FE 
Decrypted Response: 00 FE 
Raw Response and len 2: 00 FE 
Decrypted Response: 00 FE 
Raw Response and len 2: 00 FE 
Decrypted Response: 00 FE 
Raw Response and len 2: 00 FC 
Decrypted Response: 00 FC 
Raw Response and len 1: 00 
Decrypted Response: 00 
Raw Response and len 1: 00 
Decrypted Response: 00 
Raw Response and len 1: 00 
Decrypted Response: 00 
Raw Response and len 2: 00 FE 
Decrypted Response: 00 FE 
Raw Response and len 2: 00 FC 
Decrypted Response: 00 FC 
Raw Response and len 1: 00 
Decrypted Response: 00 
Raw Response and len 2: 00 FC 
Decrypted Response: 00 FC 
Raw Response and len 2: 00 FE 
Decrypted Response: 00 FE 
Raw Response and len 2: 00 80 
Decrypted Response: 00 80 
Raw Response and len 2: 00 FF 
Decrypted Response: 00 FF 
Raw Response and len 2: 00 FC 
Decrypted Response: 00 FC 
Raw Response and len 2: 00 FC 
Decrypted Response: 00 FC 
Raw Response and len 2: 00 FE 
Decrypted Response: 00 FE 
Raw Response and len 2: 00 FF 
Decrypted Response: 00 FF 
Raw Response and len 2: 00 FF 
Decrypted Response: 00 FF 
Raw Response and len 2: 00 FE 
Decrypted Response: 00 FE 
Raw Response and len 2: 00 F4 
Decrypted Response: 00 F4 
Raw Response and len 2: 00 FC 
Decrypted Response: 00 FC 
Raw Response and len 2: 00 FC 
Decrypted Response: 00 FC 
Raw Response and len 2: 00 FC 
Decrypted Response: 00 FC 
Raw Response and len 2: 00 FE 
Decrypted Response: 00 FE 
Raw Response and len 2: 00 FF 
Decrypted Response: 00 FF 
Raw Response and len 2: 00 FE 
Decrypted Response: 00 FE 
Raw Response and len 2: 00 FF 
Decrypted Response: 00 FF 
Raw Response and len 2: 00 FF 
Decrypted Response: 00 FF 
Raw Response and len 1: 00 
Decrypted Response: 00 
Raw Response and len 1: 00 
Decrypted Response: 00 
Raw Response and len 2: 00 FE 
Decrypted Response: 00 FE 
Raw Response and len 2: 00 FC 
Decrypted Response: 00 FC 
Raw Response and len 2: 00 FE 
Decrypted Response: 00 FE 
Raw Response and len 41: 00 00 08 00 00 00 00 00 00 00 00 00 7F 00 00 F8 00 00 F8 80 00 00 00 00 00 00 00 F0 00 00 00 00 00 FC 00 00 00 00 FF 00 00 
-->Received Button/Knob 0 state : 0
Decrypted Response: F7 04 03 02 FF 07 F7 02 00 00 00 FA 82 00 00 F8 00 00 F8 80 00 00 00 00 00 00 00 F0 00 00 00 00 00 FC 00 00 00 00 FF 00 00 
Raw Response and len 16: 00 FF 00 80 00 00 00 00 00 00 00 FE 00 FE 00 C0 
-->Received Button/Knob 0 state : 0
Decrypted Response: F7 03 FB 82 FF 07 F7 02 00 00 00 F8 03 FE 00 C0 
Raw Response and len 5: 00 FF 00 00 FE 
Decrypted Response: 00 FF 00 00 FE 
Raw Response and len 3: 00 00 FF 
Decrypted Response: 00 00 FF 
Raw Response and len 2: 00 00 
Decrypted Response: 00 00 
Raw Response and len 2: 00 FF 
Decrypted Response: 00 FF 
Raw Response and len 2: 00 FF 
Decrypted Response: 00 FF 
Raw Response and len 2: 00 FF 
Decrypted Response: 00 FF 
Raw Response and len 2: 00 FF 
Decrypted Response: 00 FF 
Raw Response and len 2: 00 FE 
Decrypted Response: 00 FE 
Raw Response and len 2: 00 FE 
Decrypted Response: 00 FE 
Raw Response and len 2: 00 FF 
Decrypted Response: 00 FF 
Raw Response and len 2: 00 FE 
Decrypted Response: 00 FE 
Raw Response and len 2: 00 FF 
Decrypted Response: 00 FF 
Raw Response and len 1: 00 
Decrypted Response: 00 
Raw Response and len 1: 00 
Decrypted Response: 00 
Raw Response and len 2: 00 FE 
Decrypted Response: 00 FE 
Raw Response and len 2: 00 FF 
Decrypted Response: 00 FF 
Raw Response and len 2: 00 FE 
Decrypted Response: 00 FE 
Raw Response and len 3: 00 FE 00 
Decrypted Response: 00 FE 00 
Raw Response and len 2: 00 FF 
Decrypted Response: 00 FF 
Raw Response and len 5: 00 00 FE 00 FF 
Decrypted Response: 00 00 FE 00 FF 
Raw Response and len 2: 00 FE 
Decrypted Response: 00 FE 
Raw Response and len 2: 00 FF 
Decrypted Response: 00 FF 
Raw Response and len 4: 00 FE 00 FF 
Decrypted Response: 00 FE 00 FF 
Raw Response and len 1: 00 
Decrypted Response: 00 
Raw Response and len 5: 00 00 FF 00 FE 
Decrypted Response: 00 00 FF 00 FE 
Raw Response and len 2: 00 FF 
Decrypted Response: 00 FF 
Raw Response and len 4: 00 FE 00 FF 
Decrypted Response: 00 FE 00 FF 
Raw Response and len 4: 00 FF 00 FF 
Decrypted Response: 00 FF 00 FF 
Raw Response and len 2: 00 FF 
Decrypted Response: 00 FF 
Raw Response and len 2: 00 FF 
Decrypted Response: 00 FF 
Raw Response and len 2: 00 FF 
Decrypted Response: 00 FF 
Raw Response and len 3: 00 00 FF 
Decrypted Response: 00 00 FF 
Raw Response and len 3: 00 00 FF 
Decrypted Response: 00 00 FF 
Raw Response and len 7: 00 00 FF 00 FF 00 FF 
Decrypted Response: 00 00 FF 00 FF 00 FF 
Raw Response and len 6: 00 FF 00 00 00 FF 
Decrypted Response: 00 FF 00 00 00 FF 
Raw Response and len 2: 00 FF 
Decrypted Response: 00 FF 
Raw Response and len 6: 00 FF 00 FE 00 FF 
Decrypted Response: 00 FF 00 FE 00 FF 
Raw Response and len 2: 00 FE 
Decrypted Response: 00 FE 
Raw Response and len 2: 00 FF 
Decrypted Response: 00 FF 
Raw Response and len 2: 00 FF 
Decrypted Response: 00 FF 
Raw Response and len 2: 00 FF 
Decrypted Response: 00 FF 
Raw Response and len 2: 00 FF 
Decrypted Response: 00 FF 
Raw Response and len 8: 00 00 00 FF 00 00 00 FF 
Decrypted Response: 00 00 00 FF 00 00 00 FF 
Raw Response and len 2: 00 FF 
Decrypted Response: 00 FF 
Raw Response and len 2: 00 FE 
Decrypted Response: 00 FE 
Raw Response and len 120: 00 FF 00 FE 00 FE 00 FE 00 00 FE 00 FF 00 FF 00 00 FF 00 FF 00 FF 00 FF 00 FF 00 FE 00 FF 00 FF 00 FF 00 FF 00 FF 00 FF 00 FF 00 FF 00 FE 00 FF 00 00 FF 00 FF 00 FE 00 00 FF 00 FE 00 FF 00 FF 00 FF 00 FF 00 FF 00 FF 00 00 00 FF 00 FF 00 FE 20 00 00 00 00 00 00 00 00 00 00 00 00 00 00 00 00 00 00 00 00 00 00 00 00 00 00 00 00 00 00 00 00 00 00 00 00 00 00 00 
-->Received Button/Knob 0 state : 134
Decrypted Response: F7 03 FB 00 FF 05 F7 00 00 00 86 FA 02 00 FF 00 00 FF 00 FF 00 FF 00 FF 00 FF 00 FE 00 FF 00 FF 00 FF 00 FF 00 FF 00 FF 00 FF 00 FF 00 FE 00 FF 00 00 FF 00 FF 00 FE 00 00 FF 00 FE 00 FF 00 FF 00 FF 00 FF 00 FF 00 FF 00 00 00 FF 00 FF 00 FE 20 00 00 00 00 00 00 00 00 00 00 00 00 00 00 00 00 00 00 00 00 00 00 00 00 00 00 00 00 00 00 00 00 00 00 00 00 00 00 00 
Raw Response and len 120: 00 00 00 00 00 00 00 00 00 00 00 00 00 00 00 00 00 00 00 00 00 00 00 00 00 00 00 00 00 00 00 00 00 00 00 00 00 00 00 00 00 00 00 00 00 00 00 00 00 00 00 00 00 00 00 00 00 00 00 00 00 00 00 00 00 00 00 00 00 00 00 00 00 00 00 00 00 00 00 00 00 00 00 00 00 00 00 00 00 00 00 00 00 00 00 00 00 00 00 00 00 00 00 00 00 00 00 00 00 00 00 00 00 00 00 00 00 00 00 00 
-->Received Button/Knob 0 state : 0
Decrypted Response: F7 04 FB 02 FF 07 F7 02 00 00 00 FA 03 00 00 00 00 00 00 00 00 00 00 00 00 00 00 00 00 00 00 00 00 00 00 00 00 00 00 00 00 00 00 00 00 00 00 00 00 00 00 00 00 00 00 00 00 00 00 00 00 00 00 00 00 00 00 00 00 00 00 00 00 00 00 00 00 00 00 00 00 00 00 00 00 00 00 00 00 00 00 00 00 00 00 00 00 00 00 00 00 00 00 00 00 00 00 00 00 00 00 00 00 00 00 00 00 00 00 00 
Raw Response and len 120: 00 00 00 00 8D B6 25 FD FF 8B 63 FF 00 00 00 00 00 00 00 00 00 00 00 00 00 00 00 00 00 00 00 00 00 00 00 00 00 00 00 00 00 00 00 00 00 00 00 00 00 00 00 00 00 00 00 00 00 00 00 00 00 00 00 00 00 00 00 00 00 00 00 00 00 00 00 00 00 00 00 00 00 00 00 00 00 00 00 00 00 00 00 00 00 00 00 00 00 00 00 00 00 00 00 00 00 00 00 00 00 00 00 00 00 00 00 00 00 00 00 00 
-->Received Button/Knob 139 state : 1
Decrypted Response: F7 04 FB 02 8C BD 1C FF FF 8B 01 F9 03 00 00 00 00 00 00 00 00 00 00 00 00 00 00 00 00 00 00 00 00 00 00 00 00 00 00 00 00 00 00 00 00 00 00 00 00 00 00 00 00 00 00 00 00 00 00 00 00 00 00 00 00 00 00 00 00 00 00 00 00 00 00 00 00 00 00 00 00 00 00 00 00 00 00 00 00 00 00 00 00 00 00 00 00 00 00 00 00 00 00 00 00 00 00 00 00 00 00 00 00 00 00 00 00 00 00 00 
Raw Response and len 120: 00 00 00 00 00 00 00 00 00 00 00 00 00 00 00 00 00 00 00 00 00 00 00 FE 00 00 00 00 FF 00 00 00 00 00 00 00 00 00 00 00 00 00 00 00 00 00 00 00 FF 00 00 00 00 00 00 00 00 00 00 00 00 00 00 00 00 00 00 00 00 00 FF 00 00 00 00 FF 00 00 00 00 FF 00 FF 00 FF 00 FF 00 FF 00 00 FF 00 FF 00 FF 00 00 FF 00 00 00 00 FF FF 00 00 00 00 00 00 00 00 00 FF 00 00 00 00 FF 
-->Received Button/Knob 0 state : 0
Decrypted Response: F7 04 FB 02 FF 07 F7 02 00 00 00 FA 03 00 00 00 00 00 00 00 00 00 00 FE 00 00 00 00 FF 00 00 00 00 00 00 00 00 00 00 00 00 00 00 00 00 00 00 00 FF 00 00 00 00 00 00 00 00 00 00 00 00 00 00 00 00 00 00 00 00 00 FF 00 00 00 00 FF 00 00 00 00 FF 00 FF 00 FF 00 FF 00 FF 00 00 FF 00 FF 00 FF 00 00 FF 00 00 00 00 FF FF 00 00 00 00 00 00 00 00 00 FF 00 00 00 00 FF 
Raw Response and len 13: 00 00 00 00 00 00 FF 00 00 00 FF 00 01 
-->Received Button/Knob 0 state : 135
Decrypted Response: F7 04 FB 02 FF 07 F6 02 00 00 87 FA 04 
Processed Response: -0-F7 -1-04 -2-FB -3-02 -4-FF -5-07 -6-F6 -7-02 -8-00 -9-00 -10-87 -11-FA -12-04 

CRC Calculated: 2F DC

--CRC is not in correct Format--
Raw Response and len 120: 00 00 00 00 FF 00 00 00 00 00 00 00 00 00 00 00 00 00 00 00 00 00 00 00 00 00 00 00 00 00 00 00 00 00 00 00 00 00 00 00 00 00 00 00 00 00 00 00 00 00 00 00 00 00 00 00 00 00 00 00 00 00 00 00 00 00 00 00 00 00 00 00 00 00 00 00 00 FF 00 FF 00 00 00 00 00 00 FF 00 FF 00 00 00 00 00 00 FF 00 00 FF 00 00 00 00 00 00 00 00 00 00 00 00 00 00 00 00 00 00 00 00 00 
-->Received Button/Knob 0 state : 0
Decrypted Response: F7 04 FB 02 FE 07 F7 02 00 00 00 FA 03 00 00 00 00 00 00 00 00 00 00 00 00 00 00 00 00 00 00 00 00 00 00 00 00 00 00 00 00 00 00 00 00 00 00 00 00 00 00 00 00 00 00 00 00 00 00 00 00 00 00 00 00 00 00 00 00 00 00 00 00 00 00 00 00 FF 00 FF 00 00 00 00 00 00 FF 00 FF 00 00 00 00 00 00 FF 00 00 FF 00 00 00 00 00 00 00 00 00 00 00 00 00 00 00 00 00 00 00 00 00 
Raw Response and len 120: 00 FE 00 00 00 00 00 00 00 00 00 00 00 00 00 00 00 00 00 00 00 00 00 00 00 00 00 00 00 00 00 00 00 00 00 00 00 00 00 00 00 00 00 00 00 00 00 00 00 00 00 00 00 00 00 00 00 00 00 00 00 00 00 00 00 00 00 00 00 00 00 00 00 00 00 00 00 00 00 00 00 00 00 00 00 00 00 00 00 00 00 00 00 00 00 00 00 00 00 00 00 00 00 00 00 00 00 00 00 00 00 00 00 00 00 00 00 00 00 00 
-->Received Button/Knob 0 state : 0
Decrypted Response: F7 02 FB 02 FF 07 F7 02 00 00 00 FA 03 00 00 00 00 00 00 00 00 00 00 00 00 00 00 00 00 00 00 00 00 00 00 00 00 00 00 00 00 00 00 00 00 00 00 00 00 00 00 00 00 00 00 00 00 00 00 00 00 00 00 00 00 00 00 00 00 00 00 00 00 00 00 00 00 00 00 00 00 00 00 00 00 00 00 00 00 00 00 00 00 00 00 00 00 00 00 00 00 00 00 00 00 00 00 00 00 00 00 00 00 00 00 00 00 00 00 00 
Raw Response and len 120: 00 8D B6 25 FD FF 8B E3 00 00 00 00 00 00 00 00 00 00 00 00 00 00 00 00 00 00 00 00 00 00 00 00 00 00 00 00 00 00 00 00 00 00 00 00 00 00 00 00 00 00 00 00 00 00 00 00 00 00 00 00 00 00 00 00 00 00 00 00 00 00 00 00 00 00 00 00 00 00 00 00 00 00 00 00 00 00 00 00 00 00 00 00 00 00 00 00 00 00 00 00 00 00 00 00 00 00 00 00 00 00 00 00 00 00 00 00 00 00 00 00 
-->Received Button/Knob 0 state : 0
Decrypted Response: F7 91 B1 27 FC 06 82 E5 00 00 00 FA 03 00 00 00 00 00 00 00 00 00 00 00 00 00 00 00 00 00 00 00 00 00 00 00 00 00 00 00 00 00 00 00 00 00 00 00 00 00 00 00 00 00 00 00 00 00 00 00 00 00 00 00 00 00 00 00 00 00 00 00 00 00 00 00 00 00 00 00 00 00 00 00 00 00 00 00 00 00 00 00 00 00 00 00 00 00 00 00 00 00 00 00 00 00 00 00 00 00 00 00 00 00 00 00 00 00 00 00 
Raw Response and len 120: 00 00 00 00 00 00 00 00 00 00 00 00 00 00 00 00 00 00 00 00 00 00 00 00 00 00 00 00 00 00 00 00 00 00 00 00 00 00 00 00 00 00 00 00 00 00 00 00 00 00 00 00 00 00 00 00 00 00 00 00 00 00 00 00 00 00 00 00 00 00 00 00 00 00 00 00 00 00 00 00 00 00 00 00 00 00 00 00 00 00 00 00 00 00 00 00 00 00 00 00 00 00 00 00 00 00 00 00 00 00 00 00 00 00 00 00 00 00 00 00 
-->Received Button/Knob 0 state : 0
Decrypted Response: F7 04 FB 02 FF 07 F7 02 00 00 00 FA 03 00 00 00 00 00 00 00 00 00 00 00 00 00 00 00 00 00 00 00 00 00 00 00 00 00 00 00 00 00 00 00 00 00 00 00 00 00 00 00 00 00 00 00 00 00 00 00 00 00 00 00 00 00 00 00 00 00 00 00 00 00 00 00 00 00 00 00 00 00 00 00 00 00 00 00 00 00 00 00 00 00 00 00 00 00 00 00 00 00 00 00 00 00 00 00 00 00 00 00 00 00 00 00 00 00 00 00 
Raw Response and len 120: 00 00 00 00 00 00 00 00 00 00 00 00 00 00 00 00 00 00 00 00 00 00 00 00 00 00 00 00 00 00 00 00 00 00 00 00 00 00 00 00 00 00 00 00 00 00 00 00 00 00 00 00 00 00 00 00 00 00 00 00 00 00 00 00 00 00 00 00 00 00 00 00 00 00 00 00 00 00 00 00 00 00 00 00 00 00 00 00 00 00 00 00 00 00 00 00 00 00 00 00 00 00 00 00 00 00 00 00 00 00 00 00 00 00 00 00 00 00 00 00 
-->Received Button/Knob 0 state : 0
Decrypted Response: F7 04 FB 02 FF 07 F7 02 00 00 00 FA 03 00 00 00 00 00 00 00 00 00 00 00 00 00 00 00 00 00 00 00 00 00 00 00 00 00 00 00 00 00 00 00 00 00 00 00 00 00 00 00 00 00 00 00 00 00 00 00 00 00 00 00 00 00 00 00 00 00 00 00 00 00 00 00 00 00 00 00 00 00 00 00 00 00 00 00 00 00 00 00 00 00 00 00 00 00 00 00 00 00 00 00 00 00 00 00 00 00 00 00 00 00 00 00 00 00 00 00 
Raw Response and len 120: 00 00 00 00 00 00 00 00 00 00 00 00 00 00 00 00 00 00 00 00 00 00 00 00 00 00 00 00 00 00 00 00 00 00 00 00 00 00 00 00 00 00 00 00 00 00 00 00 00 00 00 00 00 00 00 00 00 00 00 00 00 00 00 00 00 00 00 00 00 00 00 00 00 00 00 00 00 00 00 00 00 00 00 00 00 00 00 00 00 00 00 00 00 00 00 00 00 00 00 00 00 00 00 00 00 00 00 00 00 00 00 00 00 00 00 00 00 00 00 00 
-->Received Button/Knob 0 state : 0
